(1713504859.236545) vcan0 747#FDB3655488F4
(1713504859.241676) vcan0 4F8#A87711190A4AAA6B
(1713504859.246960) vcan0 3BF#DEAEBC29F776B548
(1713504859.252217) vcan0 7A3#F6303141B44D525A
(1713504859.257444) vcan0 593#61E9381216F6F52C
(1713504859.262555) vcan0 06E#
(1713504859.269406) vcan0 214#8142860B21B2414D
(1713504859.274798) vcan0 49D#685A1513E4CBAA2B
(1713504859.280134) vcan0 5E2#6DC0F07EDA
(1713504859.285420) vcan0 750#E41CED790F
(1713504859.290733) vcan0 0DE#07EA
(1713504859.296359) vcan0 1CE#3616D949624FC129
(1713504859.301525) vcan0 3D7#7845B75645D4E4
(1713504859.306774) vcan0 058#7726BB376C8A3D0B
(1713504859.311991) vcan0 717#8D3C7F58B41BC071
(1713504859.317187) vcan0 6C5#99E76A1DA7
(1713504859.323093) vcan0 55B#81F76E41AB74
(1713504859.328300) vcan0 01B#BBE7C617F9
(1713504859.333497) vcan0 028#7AC1
(1713504859.339721) vcan0 4BF#
(1713504859.344857) vcan0 748#DB
(1713504859.350042) vcan0 5C9#0C2AC5
(1713504859.356551) vcan0 44C#95A8E0711143B079
(1713504859.361712) vcan0 58F#B867DC2CEAA2E84D
(1713504859.366910) vcan0 034#9517CF534F180560
(1713504859.373167) vcan0 39E#
(1713504859.378630) vcan0 112#BD7519
(1713504859.383753) vcan0 273#6886B05CBB
(1713504859.389940) vcan0 5E6#5B218905
(1713504859.395226) vcan0 697#9160A242E312E4
(1713504859.400456) vcan0 201#F455946B90AF
(1713504859.406380) vcan0 155#7A52541489D1756F
(1713504859.411557) vcan0 4E5#D9E97A4F83906330
(1713504859.416676) vcan0 160#4A
(1713504859.423062) vcan0 5E4#44F8C21D58786D
(1713504859.428330) vcan0 11C#13FA6E7B03DF9C6F
(1713504859.433453) vcan0 1F1#B3B21E3288880B4E
(1713504859.440103) vcan0 6D6#6B9BEF3F
(1713504859.445377) vcan0 46A#67C8444FBFB5126D
(1713504859.450498) vcan0 70B#49
(1713504859.456211) vcan0 4F1#735C
(1713504859.461440) vcan0 443#C3282251283A3316
(1713504859.466562) vcan0 2C4#80B2A037E1DBC06F
(1713504859.472945) vcan0 7B5#E4BA5D
(1713504859.478569) vcan0 002#2ECA065AD92E4E
(1713504859.483682) vcan0 0DB#B047277A459D812F
(1713504859.490183) vcan0 6F8#0553941C03066F09
(1713504859.495735) vcan0 2F9#F3D11F54EAAFC178
(1713504859.500950) vcan0 370#3B9E3718B3B7
(1713504859.506418) vcan0 724#DBF1BF45E809A91A
(1713504859.511741) vcan0 007#C9E5690ABC879741
(1713504859.517218) vcan0 0EF#62C9924DF1187864
(1713504859.523466) vcan0 644#
(1713504859.528719) vcan0 129#652C033121500A07
(1713504859.534409) vcan0 793#245679108CCA5E46
(1713504859.539642) vcan0 1B8#777A203F28A5D4
(1713504859.544980) vcan0 67D#DB5C
(1713504859.551348) vcan0 7B1#8ACFCF51B8C7F0
(1713504859.557797) vcan0 312#744F88
(1713504859.564236) vcan0 601#F35C6A734564
(1713504859.570651) vcan0 466#65F3C6428FA54411
(1713504859.577132) vcan0 438#B0F54E18CBD37732
(1713504859.583509) vcan0 734#589ED678
(1713504859.589075) vcan0 3EB#149EEA7369CA2E41
(1713504859.594893) vcan0 181#0A90557833110150
(1713504859.600209) vcan0 1A6#EBD8F168
(1713504859.606705) vcan0 4E8#
(1713504859.613179) vcan0 136#2ECFA52D9DED493B
(1713504859.619580) vcan0 26B#2C938E
(1713504859.624702) vcan0 25D#6F8A126691819825
(1713504859.630351) vcan0 4B1#7D7AAE2D9D4807
(1713504859.636598) vcan0 196#06
(1713504859.641749) vcan0 381#
(1713504859.647137) vcan0 2A5#E09941708D17
(1713504859.652351) vcan0 596#76827031CCC6310E
(1713504859.657564) vcan0 048#69B47B49
(1713504859.662671) vcan0 438#5731866D95F6
(1713504859.667761) vcan0 073#2778525924A5
(1713504859.672915) vcan0 48D#C1ED9423
(1713504859.678136) vcan0 336#3A99916FB71E7F
(1713504859.683528) vcan0 3D8#DE7BD17A7D
(1713504859.688815) vcan0 2BB#0ABE173851008167
(1713504859.694004) vcan0 05A#
(1713504859.699113) vcan0 224#56A390125CA621
(1713504859.705622) vcan0 31D#F29CDB4B90932050
(1713504859.711464) vcan0 073#B438AE5800753106
(1713504859.716643) vcan0 7BD#239B934FF312
(1713504859.722395) vcan0 73D#AA31482E15CB6450
(1713504859.727648) vcan0 1E2#92716C439DCCCB69
(1713504859.732773) vcan0 348#EECC4C51A2F3624D
(1713504859.739454) vcan0 01C#441C08264102AB2D
(1713504859.744772) vcan0 793#9DA8CC45B0D2665B
(1713504859.750492) vcan0 447#4066872BBA245F0C
(1713504859.756938) vcan0 2A8#BA999012
(1713504859.763118) vcan0 56A#5975CE37A8EC867C
(1713504859.769071) vcan0 13B#BDB7EB4C
(1713504859.775556) vcan0 48D#
(1713504859.781959) vcan0 0EC#770BC07009C9E870
(1713504859.791764) vcan0 0B5#4ACB931E48F8764E
(1713504859.797036) vcan0 756#F8CADD299D7B10
(1713504859.802766) vcan0 177#58A06F141F14DF2C
(1713504859.808176) vcan0 02D#8576
(1713504859.813289) vcan0 6F0#3F829A562BD86D2A
(1713504859.818935) vcan0 2E3#48939E7070E7F93C
(1713504859.824059) vcan0 34D#45FF56
(1713504859.829201) vcan0 7AD#4285A33062582D6A
(1713504859.834299) vcan0 277#AB50A438CD194037
(1713504859.839415) vcan0 474#6B9550
(1713504859.844753) vcan0 4DC#0A927F
(1713504859.850499) vcan0 7D5#
(1713504859.856711) vcan0 46F#
(1713504859.862367) vcan0 6DD#C26EDA182AD29419
(1713504859.867460) vcan0 53C#638E4F59E9D470
(1713504859.872729) vcan0 0C3#4C2D9E4B3AAB
(1713504859.878490) vcan0 432#08C56769A628C2
(1713504859.883754) vcan0 19A#91A662
(1713504859.888897) vcan0 036#7F032E300B003977
(1713504859.894026) vcan0 12C#
(1713504859.899122) vcan0 300#ED
(1713504859.904240) vcan0 7FA#072C3F5D3745EE07
(1713504859.909477) vcan0 1B6#201A5F6979129259
(1713504859.914710) vcan0 610#B3BDB90B4332AC19
(1713504859.919854) vcan0 563#E95A6E26FE5E0420
(1713504859.925070) vcan0 52E#7445B03E646D521A
(1713504859.930287) vcan0 217#706D8B11
(1713504859.935522) vcan0 714#DE
(1713504859.940676) vcan0 202#F143402CFDC17B7E
(1713504859.945874) vcan0 17A#34076A063033F620
(1713504859.951072) vcan0 262#A945887A
(1713504859.956190) vcan0 0C1#B62A3C1A242E065E
(1713504859.961520) vcan0 618#228D0A7E46633D19
(1713504859.966658) vcan0 71A#ABD08F3331C12E
(1713504859.971782) vcan0 38B#743C28649F1A3B36
(1713504859.976963) vcan0 25C#B304
(1713504859.982077) vcan0 31D#5B2E5A06
(1713504859.987191) vcan0 09C#C727B610FEE29E14
(1713504859.992321) vcan0 6E4#
(1713504859.997761) vcan0 0CD#C9ED597FE5F6E3
(1713504860.002885) vcan0 3C7#2B5A2126E112910D
(1713504860.008186) vcan0 583#13D4BF140E69
(1713504860.013359) vcan0 0F1#AD83F31B4DF390
(1713504860.018692) vcan0 5DA#
(1713504860.023945) vcan0 104#8F4D3A29A08966
(1713504860.029147) vcan0 397#9E6C056F7B1A
(1713504860.034409) vcan0 2C7#
(1713504860.039519) vcan0 637#794A9363FED9B423
(1713504860.044963) vcan0 2D5#E0EC4531
(1713504860.050243) vcan0 77B#66F904
(1713504860.055363) vcan0 17A#BA2BC3
(1713504860.060707) vcan0 573#4C28CF5377D6
(1713504860.065818) vcan0 16D#1760F97C04DD8975
(1713504860.071030) vcan0 331#7FF7A47DF8CD
(1713504860.076319) vcan0 4C6#8C21D852FD62D223
(1713504860.081909) vcan0 189#FC3C87475E
(1713504860.087597) vcan0 0AA#B76C565625E08523
(1713504860.092944) vcan0 2CF#9118B82549BCC07D
(1713504860.098238) vcan0 331#9E8B1518A4E8101B
(1713504860.103365) vcan0 7B1#1CBFA33D1FE9A96D
(1713504860.108544) vcan0 1C5#23C633
(1713504860.113894) vcan0 3E9#EFE210
(1713504860.119519) vcan0 742#AD63A13ACB28C957
(1713504860.124940) vcan0 081#2A05D34D2B817465
(1713504860.130155) vcan0 285#50
(1713504860.135298) vcan0 7FE#9D
(1713504860.140655) vcan0 62D#D4A3E959DE8DDB4A
(1713504860.145826) vcan0 125#
(1713504860.151108) vcan0 223#E1
(1713504860.156365) vcan0 2C4#
(1713504860.161888) vcan0 74B#D2B2475CCC47A874
(1713504860.167201) vcan0 312#F7C81C5A973D5547
(1713504860.173574) vcan0 1DD#EBF21D01DB01C9
(1713504860.179303) vcan0 429#0BBDA14D5662F758
(1713504860.184557) vcan0 1C4#34F0D223EA12CA43
(1713504860.189951) vcan0 3CF#D4ED
(1713504860.195118) vcan0 453#FFB3090A17
(1713504860.200484) vcan0 085#1D292279D187545C
(1713504860.205846) vcan0 525#9DCFFC5038683530
(1713504860.211553) vcan0 3EB#CFA58A77C8
(1713504860.216649) vcan0 2DC#A4BF915C0567FA1F
(1713504860.221966) vcan0 544#5BC9F178085F9639
(1713504860.227108) vcan0 58E#
(1713504860.232364) vcan0 0C2#4FE71A2215C52E
(1713504860.237662) vcan0 57C#2C64D26502EE321F
(1713504860.242904) vcan0 60B#D375877B30B39929
(1713504860.248370) vcan0 139#
(1713504860.253683) vcan0 605#EDBAAB01E2A0CE05
(1713504860.259196) vcan0 1F3#E7
(1713504860.264510) vcan0 740#3FB6E8
(1713504860.269930) vcan0 2D3#2B76
(1713504860.276366) vcan0 7F9#AA70CB2575C5172A
(1713504860.282227) vcan0 0C9#77B34A49D4B6
(1713504860.287538) vcan0 21F#056AA42858CBF01E
(1713504860.293122) vcan0 6BB#7DC8D352C04CF408
(1713504860.298842) vcan0 6A5#A2EDC20E98A0CF1D
(1713504860.304496) vcan0 5FB#CFF721193BF52D3B
(1713504860.309640) vcan0 6CD#09CA5D15A051C60E
(1713504860.315209) vcan0 641#35FD6243
(1713504860.320422) vcan0 5AE#AF2351427896CE46
(1713504860.325576) vcan0 2B5#4C4DD945D4A45E
(1713504860.334766) vcan0 071#2D
(1713504860.340269) vcan0 4BF#EDBBB86A6483BE44
(1713504860.345625) vcan0 414#FD238E620FBA5F58
(1713504860.350798) vcan0 719#4AAF8D13E6654E01
(1713504860.356319) vcan0 1DB#86B714
(1713504860.361423) vcan0 187#56FE47623557D836
(1713504860.366546) vcan0 29A#ADEDA67D4F65
(1713504860.373464) vcan0 12D#240AD1109EF9A200
(1713504860.378648) vcan0 24B#CB
(1713504860.383795) vcan0 2FB#6FB2AD670F6FE605
(1713504860.390656) vcan0 647#1E29465E616DA374
(1713504860.396109) vcan0 238#47D3F17514BCA60F
(1713504860.401426) vcan0 1BB#305CB559420B1044
(1713504860.406670) vcan0 789#7762E87A246224
(1713504860.411890) vcan0 48D#73C79647BA
(1713504860.417110) vcan0 31F#586F6E116A7D0D
(1713504860.423101) vcan0 3E8#75ACFC
(1713504860.428453) vcan0 4DB#F26DB24D
(1713504860.433694) vcan0 550#
(1713504860.439708) vcan0 778#9CE3781833C18B38
(1713504860.445216) vcan0 699#75CC9B7C23D6AB51
(1713504860.450797) vcan0 254#4738D067E116C20E
(1713504860.456144) vcan0 712#9B8C8D1F310A232C
(1713504860.461668) vcan0 152#9B8730
(1713504860.467338) vcan0 417#
(1713504860.473779) vcan0 2F4#
(1713504860.479117) vcan0 121#CDEF8F6F99909A4E
(1713504860.484282) vcan0 065#CD512607FE76E353
(1713504860.489800) vcan0 336#214D
(1713504860.495859) vcan0 52F#6BC4243741CC596B
(1713504860.501437) vcan0 523#72D67C177556
(1713504860.507447) vcan0 4FA#AF73EC331121802C
(1713504860.512715) vcan0 21E#03F247121325B200
(1713504860.518468) vcan0 1DE#57ED6F67FF3AB320
(1713504860.524989) vcan0 2B2#98CB4D6F
(1713504860.530475) vcan0 08E#16BAC918C4
(1713504860.535809) vcan0 3A8#4F71A201D7887C
(1713504860.541193) vcan0 4A0#1955D660C3117F08
(1713504860.546378) vcan0 6C1#3868144DBBD32717
(1713504860.551504) vcan0 199#CCF4A743B81BDB
(1713504860.556878) vcan0 3B5#CB408D079385F55B
(1713504860.562607) vcan0 4E8#92C0
(1713504860.568080) vcan0 347#B21AA803D5BB0525
(1713504860.573573) vcan0 190#997F457E38E5A05C
(1713504860.579597) vcan0 400#0F6E1D52A0688326
(1713504860.584821) vcan0 6A3#637A022F64AD2848
(1713504860.590628) vcan0 6B4#1F81505F4D784755
(1713504860.595791) vcan0 682#0594225C372A2869
(1713504860.601160) vcan0 4BA#
(1713504860.607677) vcan0 2F3#3EA93B0D3A0EAA18
(1713504860.614094) vcan0 487#
(1713504860.619351) vcan0 0B9#4F8BC86CB9742008
(1713504860.624518) vcan0 291#59DDA32E34618C74
(1713504860.629939) vcan0 487#980EB53C3BAB201D
(1713504860.635863) vcan0 257#88236872D9F8D4
(1713504860.641249) vcan0 5A2#1123FD3F5C62E637
(1713504860.647090) vcan0 45E#FF336006518FE704
(1713504860.652274) vcan0 338#8B9D911DBF3F9E74
(1713504860.657702) vcan0 12E#D6E5C504E739D551
(1713504860.663774) vcan0 143#A0AEF559D4
(1713504860.670257) vcan0 283#084DA0470A274E22
(1713504860.675501) vcan0 3B5#
(1713504860.681961) vcan0 357#E516D216F9F0585F
(1713504860.687118) vcan0 55C#55533F17BA39
(1713504860.692248) vcan0 4D2#0CC983370A
(1713504860.697643) vcan0 492#C98F6917C005BB
(1713504860.703094) vcan0 632#A73F9027757F8D47
(1713504860.708282) vcan0 6C4#496BA11A475132
(1713504860.713829) vcan0 240#52
(1713504860.719906) vcan0 3F1#017C5C3048FFF1
(1713504860.725480) vcan0 065#41F04A66C1ED27
(1713504860.731816) vcan0 4DD#7C27C404AFD9
(1713504860.737302) vcan0 2EB#B929B31C7E2F654C
(1713504860.743151) vcan0 71F#3E35
(1713504860.749551) vcan0 721#C6A44109E515
(1713504860.755909) vcan0 32D#2D673C1C6EDD5555
(1713504860.762426) vcan0 060#633BB54551DCBB6C
(1713504860.768854) vcan0 216#99DBAD737C
(1713504860.774644) vcan0 24C#3D589A4029173E5B
(1713504860.781055) vcan0 771#D9F025555CDAAC72
(1713504860.786750) vcan0 041#DA09
(1713504860.793114) vcan0 415#B2ECB75436034276
(1713504860.799034) vcan0 3FF#1C194C542C171976
(1713504860.805489) vcan0 188#9AF46E4BE9690108
(1713504860.811658) vcan0 7C8#3A46BD74DE89F109
(1713504860.817106) vcan0 763#5AF46378
(1713504860.823008) vcan0 5AE#D848B41F1FFDE619
(1713504860.828365) vcan0 451#7C
(1713504860.833929) vcan0 444#F40307135928
(1713504860.840174) vcan0 06F#8F2BEB026ED4
(1713504860.845681) vcan0 21F#9BEBD34DA8239547
(1713504860.851741) vcan0 4F4#918D964FBC
(1713504860.857088) vcan0 033#9BAEF63E96F79C31
(1713504860.862935) vcan0 59F#452913764E
(1713504860.868258) vcan0 78D#6DE00909DFBBB56E
(1713504860.874730) vcan0 3CF#72F8B86E13005571
(1713504860.881143) vcan0 140#6C28FE7DAFB9
(1713504860.887039) vcan0 50C#1E8ED6652C6F372F
(1713504860.893560) vcan0 0A7#D492CC769C5DE01F
(1713504860.899070) vcan0 1EE#5882E55422
(1713504860.905914) vcan0 430#B861F1
(1713504860.911958) vcan0 3E9#1ECD982676C38F3B
(1713504860.918428) vcan0 51C#557F452AEBA86D3F
(1713504860.923823) vcan0 575#FFA8C230B5FE83
(1713504860.929349) vcan0 42D#64B89F343A613D04
(1713504860.935246) vcan0 567#66D0
(1713504860.940497) vcan0 03B#AB1BAB272A1A0E1B
(1713504860.945950) vcan0 39F#4C8462
(1713504860.952371) vcan0 6F7#9F61D132
(1713504860.958857) vcan0 102#566633171E6E240F
(1713504860.965269) vcan0 449#0A17924EBE414D4E
(1713504860.971109) vcan0 573#7340D174A1D13575
(1713504860.977601) vcan0 174#DB327379DCB6BF
(1713504860.982833) vcan0 75A#EB
(1713504860.989451) vcan0 67B#BF19162D1AEA
(1713504860.995740) vcan0 699#E961294390FD321A
(1713504861.001958) vcan0 410#70A0D67512F52455
(1713504861.008465) vcan0 246#316349648FCE71
(1713504861.014900) vcan0 473#4D10BF26E649FA28
(1713504861.020749) vcan0 244#
(1713504861.026180) vcan0 198#9482
(1713504861.032564) vcan0 1A3#8788F01A1EB8B41B
(1713504861.038010) vcan0 015#38A28263AFB68B
(1713504861.044442) vcan0 052#3FB4
(1713504861.049689) vcan0 7AB#
(1713504861.056177) vcan0 377#81887D44EA47
(1713504861.062662) vcan0 6E1#D0911C4F25D1C520
(1713504861.069146) vcan0 18F#DD9C0B012733CE4B
(1713504861.075615) vcan0 3BA#19BC
(1713504861.081389) vcan0 6F1#
(1713504861.087762) vcan0 6E7#B655F24D3A
(1713504861.094194) vcan0 3D7#9CEB784182
(1713504861.100590) vcan0 6A5#73
(1713504861.106904) vcan0 1B7#0602086B
(1713504861.112448) vcan0 6C3#BD29FF63523898
(1713504861.118910) vcan0 12F#796B667AE93C612C
(1713504861.124761) vcan0 60D#478A
(1713504861.130800) vcan0 432#059C231A
(1713504861.136410) vcan0 779#547A9F3550E31D13
(1713504861.141979) vcan0 3B1#
(1713504861.148286) vcan0 302#7314F33CB9
(1713504861.154292) vcan0 23A#5225DF27FD888E7B
(1713504861.159944) vcan0 250#4FC1262A7FEB9009
(1713504861.166371) vcan0 5AA#6928F235B7FB0415
(1713504861.173862) vcan0 45A#
(1713504861.180379) vcan0 274#A613E128ED799A2A
(1713504861.186937) vcan0 677#3D5DB83D2882C228
(1713504861.192150) vcan0 3EB#7EDCCF20EDFE9A65
(1713504861.197623) vcan0 055#A6
(1713504861.203689) vcan0 76B#8CFB6143BBB1DD67
(1713504861.209082) vcan0 008#3B9D6E71B255E76E
(1713504861.215493) vcan0 1A3#6A51EC03
(1713504861.220686) vcan0 054#
(1713504861.226596) vcan0 6DB#
(1713504861.231936) vcan0 02A#7AE7511C
(1713504861.237345) vcan0 603#0293C47A587E4913
(1713504861.242773) vcan0 4EA#E7F01C5B55BCA220
(1713504861.248679) vcan0 7A1#116E80
(1713504861.254232) vcan0 14E#5CE50A24F1921D1E
(1713504861.259429) vcan0 0F0#EED0DD234449
(1713504861.264709) vcan0 0E6#0D048A4EC15F391D
(1713504861.269968) vcan0 1A8#14C5C810
(1713504861.276400) vcan0 2B8#E815D711BB10C634
(1713504861.282817) vcan0 087#148F0F4872252105
(1713504861.289280) vcan0 793#C7E1C3253557C608
(1713504861.295769) vcan0 46F#DEE6E93DBD15B34D
(1713504861.302231) vcan0 324#AFA8D06B142C8349
(1713504861.307494) vcan0 300#5975023EE6839151
(1713504861.313907) vcan0 115#A8E3CA6EBD2A
(1713504861.319814) vcan0 22A#90AC8525E27C4875
(1713504861.325838) vcan0 54A#9E8D0E2AD2C5EA16
(1713504861.332133) vcan0 362#44EB
(1713504861.338548) vcan0 4AD#2BCA5F1E1C09F656
(1713504861.343712) vcan0 4E4#DA1EA92408784718
(1713504861.349066) vcan0 544#1DA4CA6144802A48
(1713504861.356188) vcan0 126#2B04BC193C8A
(1713504861.362622) vcan0 2DC#F9B4BB
(1713504861.369086) vcan0 08F#E9C15D01D9E5C834
(1713504861.375570) vcan0 401#ABABB34B648F96
(1713504861.381982) vcan0 439#5A02306BE708D532
(1713504861.388519) vcan0 3FB#0312CB09DF
(1713504861.394165) vcan0 58E#E7F8EA31D2FA1724
(1713504861.400041) vcan0 066#177B426C
(1713504861.405594) vcan0 67A#C9C3
(1713504861.411595) vcan0 715#5E8E
(1713504861.418059) vcan0 24C#7DDD684B4DFE94
(1713504861.424235) vcan0 7CF#B18D2B61080C4636
(1713504861.429892) vcan0 018#EF141B6913846B28
(1713504861.435802) vcan0 490#F2040F
(1713504861.442222) vcan0 7D0#F1D4DC5F37504860
(1713504861.448627) vcan0 2DE#C4895E3F5951323B
(1713504861.455625) vcan0 74A#B09A0E1B5F36A360
(1713504861.462114) vcan0 64F#032E43779BA00444
(1713504861.468573) vcan0 155#E9
(1713504861.475042) vcan0 4AA#2D255143C2B4A458
(1713504861.481471) vcan0 4A6#D638100136190C53
(1713504861.488524) vcan0 10F#55F3D00EE0B8AC40
(1713504861.494992) vcan0 3A2#1709F52081D6C8
(1713504861.501459) vcan0 04F#DA27FB799AE7EA0C
(1713504861.507732) vcan0 068#F91D8E6DB7A6B954
(1713504861.513146) vcan0 398#5347BE18ED645910
(1713504861.519574) vcan0 77E#127E641D28EC4501
(1713504861.525330) vcan0 2D6#EAA0EA597CCF3D16
(1713504861.531300) vcan0 55B#
(1713504861.536594) vcan0 789#4BF7206D2B533355
(1713504861.542281) vcan0 44F#AC29
(1713504861.548292) vcan0 33D#39A4802EA573
(1713504861.559060) vcan0 410#5C1A
(1713504861.564390) vcan0 62F#9664644FAD655D28
(1713504861.569998) vcan0 7EB#D551A329C25A0268
(1713504861.575258) vcan0 5E7#
(1713504861.581842) vcan0 480#AD
(1713504861.587750) vcan0 6FA#3537D65149936D46
(1713504861.594165) vcan0 15A#E8
(1713504861.600578) vcan0 268#3C
(1713504861.607119) vcan0 654#21C6D55583C47233
(1713504861.613574) vcan0 448#312AD05B34640C
(1713504861.620044) vcan0 55F#F6BE0E554693
(1713504861.625175) vcan0 6C6#88F6213A
(1713504861.631144) vcan0 426#501F2D6420EB
(1713504861.636389) vcan0 12E#697EEB6089
(1713504861.641969) vcan0 767#20F7
(1713504861.647968) vcan0 273#47306A26C7780512
(1713504861.653286) vcan0 1F6#4B3D78453E6EF867
(1713504861.659112) vcan0 11F#72D204557E2E7D33
(1713504861.664366) vcan0 382#C4C1FE124952BD2F
(1713504861.669942) vcan0 29D#908D4717C3763B38
(1713504861.676411) vcan0 083#
(1713504861.681841) vcan0 366#3A4C7B7BCDBA4D4D
(1713504861.687432) vcan0 69E#9C24ED5C1271065C
(1713504861.692878) vcan0 2B8#D9E90B
(1713504861.698739) vcan0 34C#EC9AE967
(1713504861.704040) vcan0 6A0#EA9A8E542372887B
(1713504861.710483) vcan0 6C7#6CC4452B64796464
(1713504861.717143) vcan0 4FB#27F09F1C7E650543
(1713504861.723058) vcan0 6DC#30E7C80642027A6F
(1713504861.728343) vcan0 257#0FBDC73CF5E0911F
(1713504861.734790) vcan0 6C5#0752987B7D514C5C
(1713504861.740724) vcan0 68F#2B
(1713504861.746659) vcan0 305#46EEB43DA6F1F471
(1713504861.752868) vcan0 677#
(1713504861.758056) vcan0 5DF#A3FE7B4CDA
(1713504861.763408) vcan0 231#596084710D795219
(1713504861.768519) vcan0 0D5#507BCC082C73737B
(1713504861.773778) vcan0 2F3#2154051BB9F1BD20
(1713504861.779066) vcan0 20B#36430A7D9A50557C
(1713504861.782412) vcan0 000#6D795F6361725F
(1713504861.783592) vcan0 000#69735F
(1713504861.784172) vcan0 20A#75D2
(1713504861.784555) vcan0 000#6272306B656E
(1713504861.785145) vcan0 000#21212121
(1713504861.789295) vcan0 27A#B5365F0FF160841E
(1713504861.795184) vcan0 1EC#2FE69B06CB2FC262
(1713504861.800344) vcan0 2B3#A52A
(1713504861.805923) vcan0 39D#F2B5420A7214A914
(1713504861.811947) vcan0 287#9E87
(1713504861.817769) vcan0 1A1#343F6216AC83EC37
(1713504861.824041) vcan0 1E8#46D44134F2630142
(1713504861.829271) vcan0 3CC#02A96B5F461E230A
(1713504861.835702) vcan0 777#377FA72863B1D9
(1713504861.842185) vcan0 236#2EE19B6FE93C47
(1713504861.848001) vcan0 239#CE7937
(1713504861.853444) vcan0 6D2#
(1713504861.858963) vcan0 102#D4B65974A3CA
(1713504861.864188) vcan0 5A6#504E19208E173650
(1713504861.870619) vcan0 073#817B37123FBC
(1713504861.877176) vcan0 152#86DAFF
(1713504861.882463) vcan0 43A#2CE25752707E154C
(1713504861.889534) vcan0 724#5ABB5C4D5E09466F
(1713504861.895757) vcan0 72D#3427D52DFF657346
(1713504861.902227) vcan0 4E8#59CF2845EAC5974B
(1713504861.908720) vcan0 363#8D90C43309A9D872
(1713504861.915150) vcan0 436#98C00E43A9F46662
(1713504861.920696) vcan0 174#E8B0436DC6CACE49
(1713504861.926024) vcan0 09C#8FFB4C0FD6645727
(1713504861.932146) vcan0 52C#47E36C7350A4D52C
(1713504861.937849) vcan0 115#AE
(1713504861.943138) vcan0 3C9#42D6DC
(1713504861.948961) vcan0 660#9BFE0308C341602F
(1713504861.954837) vcan0 3C8#CDEA3822FEA7C66F
(1713504861.960060) vcan0 606#A79C2D527A
(1713504861.965591) vcan0 77E#
(1713504861.971243) vcan0 0FE#F0ACCE282ABE9F01
(1713504861.976524) vcan0 38A#7B62752E9FB438
(1713504861.982138) vcan0 6D8#E124A27CA102635D
(1713504861.988007) vcan0 50C#523BCF
(1713504861.993489) vcan0 0BE#3055E00E87CC0C47
(1713504861.999459) vcan0 116#8574D3361C37426D
(1713504862.005954) vcan0 362#96A62125E0D2EE50
(1713504862.011983) vcan0 6BD#FA1A6652BB37
(1713504862.017843) vcan0 6A5#E6F5C60B2F2A6B2A
(1713504862.024321) vcan0 022#CE
(1713504862.030620) vcan0 08A#9C89D851974D4F19
(1713504862.037058) vcan0 6D3#0361CF78919F4902
(1713504862.043511) vcan0 6DC#186C56
(1713504862.049960) vcan0 630#0EFF585892E1294F
(1713504862.056227) vcan0 1CB#72B41820
(1713504862.062395) vcan0 67A#4388C45B1F9D155C
(1713504862.069220) vcan0 757#4EC7800679EF2305
(1713504862.074950) vcan0 68A#73769979153F9526
(1713504862.081421) vcan0 1CB#AC8CE43F9EA82F6B
(1713504862.087560) vcan0 4FE#3048796DDAC39444
(1713504862.094005) vcan0 3E3#CC8BAB2F139A2C79
(1713504862.100012) vcan0 4E6#A67B5648B1862440
(1713504862.106472) vcan0 07E#39D7C111F8B6C929
(1713504862.112937) vcan0 785#1754DF05DC96A148
(1713504862.119384) vcan0 5A6#5586C54D31
(1713504862.125335) vcan0 181#46F36E1D4C6BEF57
(1713504862.131340) vcan0 4D8#EB13
(1713504862.136575) vcan0 5A1#B0857F0E84116B56
(1713504862.142229) vcan0 063#98AB974F4AA5611E
(1713504862.148624) vcan0 456#FB2B865ED4CCAE4B
(1713504862.154321) vcan0 756#CC837875DB
(1713504862.160736) vcan0 2B2#B7EDEC
(1713504862.167191) vcan0 348#89F4B929C9B43C5B
(1713504862.173511) vcan0 0D5#15202C33AD6DE24B
(1713504862.179963) vcan0 7C1#
(1713504862.186412) vcan0 01B#E7E6EE
(1713504862.191555) vcan0 6AF#C945AD2C0563A728
(1713504862.196733) vcan0 1BD#D92F5674
(1713504862.202441) vcan0 4F9#EF671D54AB
(1713504862.208070) vcan0 388#04182A0CD07EDE
(1713504862.213525) vcan0 1B3#99331B48883ACE22
(1713504862.219511) vcan0 45D#35A8B06E1E5C8921
(1713504862.225968) vcan0 7AF#81310D5CCA177618
(1713504862.232268) vcan0 4EB#49B8C1269A53420B
(1713504862.238921) vcan0 2E8#9FB6
(1713504862.245358) vcan0 7D7#BA75C93ED0E41D5A
(1713504862.251832) vcan0 21D#7CBC6733A5253577
(1713504862.258314) vcan0 350#
(1713504862.263939) vcan0 10D#8C377C176AD58272
(1713504862.270434) vcan0 3BD#8931
(1713504862.276901) vcan0 77A#36CB7E3166447533
(1713504862.283365) vcan0 373#
(1713504862.289839) vcan0 192#
(1713504862.296213) vcan0 518#3AD66F6436CFEF2C
(1713504862.302676) vcan0 665#DBF42424B611
(1713504862.309139) vcan0 736#BA
(1713504862.315544) vcan0 15F#AE1D623F1C9D
(1713504862.322453) vcan0 608#8850E67483DD32
(1713504862.327840) vcan0 241#E921A81DB52D9D20
(1713504862.333020) vcan0 73F#1154354BD120552A
(1713504862.339509) vcan0 089#3B12A7
(1713504862.344857) vcan0 7CF#D80CD21634
(1713504862.351360) vcan0 32B#EACF8E
(1713504862.356563) vcan0 304#A42A3755
(1713504862.362300) vcan0 4EB#80A9
(1713504862.367603) vcan0 789#7628845FCB498F2B
(1713504862.372902) vcan0 5C8#80772C4C07B5656D
(1713504862.378536) vcan0 449#D8
(1713504862.384044) vcan0 2A4#744A6F
(1713504862.389694) vcan0 088#A748A26BB34B6716
(1713504862.395766) vcan0 100#142E
(1713504862.401195) vcan0 736#6800FF1E211C6838
(1713504862.407154) vcan0 10B#1567B92D95389770
(1713504862.412314) vcan0 3F2#6082261CBAB98E29
(1713504862.418784) vcan0 1EB#
(1713504862.425252) vcan0 571#06EB820C1570DB52
(1713504862.431483) vcan0 4AD#88FA1F1135FD8960
(1713504862.437082) vcan0 4C7#E948F176C7E56B2C
(1713504862.443539) vcan0 3C1#CCD9D353F8529205
(1713504862.449971) vcan0 7B6#196FFA3D
(1713504862.456449) vcan0 41D#57A9CD020F281520
(1713504862.462401) vcan0 5BA#C9E1A349A53F5B
(1713504862.468861) vcan0 597#D91D516708EBFB06
(1713504862.475310) vcan0 524#1D5BD759D1C1580A
(1713504862.481734) vcan0 65A#06BFE26A22
(1713504862.488205) vcan0 0D4#E9B0650796F4AC4A
(1713504862.494749) vcan0 6ED#8E473F50A3
(1713504862.500180) vcan0 4EA#65BF611307E952
(1713504862.506194) vcan0 4D6#1711685390F2DE72
(1713504862.512656) vcan0 473#
(1713504862.518331) vcan0 36B#12A566438FD8EB0C
(1713504862.524832) vcan0 0ED#609A441748972564
(1713504862.531046) vcan0 5D4#6A621F3FA9EE
(1713504862.536244) vcan0 156#3FE39B
(1713504862.542682) vcan0 609#E62EAB5CF302CB6F
(1713504862.548222) vcan0 174#FAEB1D234A6E0213
(1713504862.553600) vcan0 708#DA
(1713504862.560058) vcan0 7F2#86A5CA775D333611
(1713504862.566489) vcan0 31D#EC0B221E0B3C062B
(1713504862.572968) vcan0 2C8#53D32B0F9DA0A460
(1713504862.579150) vcan0 7B2#468F93500861891B
(1713504862.585554) vcan0 110#4B41097719
(1713504862.591571) vcan0 552#0CEA
(1713504862.596883) vcan0 67E#11ED214286B5FD
(1713504862.603322) vcan0 318#02A15D050AC38F53
(1713504862.609797) vcan0 0FB#67F6C56418C4C51D
(1713504862.616235) vcan0 122#2300CC
(1713504862.622968) vcan0 09F#877C6D7152A8
(1713504862.632858) vcan0 133#5A09660B4452133B
(1713504862.639603) vcan0 652#5D39A271A41B
(1713504862.644914) vcan0 2D8#6B9A5A125619E519
(1713504862.650773) vcan0 171#DCCEE26389CC7121
(1713504862.656410) vcan0 567#948F017562B69E60
(1713504862.662342) vcan0 668#7B7A647E8A47C21E
(1713504862.668813) vcan0 04F#74238B2FEE30FE14
(1713504862.675309) vcan0 615#40D9DA0448576B45
(1713504862.681754) vcan0 3C9#8CA97E001C2A2A30
(1713504862.687513) vcan0 541#C045651319E8D368
(1713504862.693056) vcan0 654#6F01B902C5FF906B
(1713504862.699432) vcan0 7A7#4ECC020D0F3DBC16
(1713504862.704933) vcan0 02A#71F3
(1713504862.711519) vcan0 1DE#1C3E07552D6A7B38
(1713504862.716835) vcan0 08B#1B
(1713504862.722634) vcan0 18D#E88D832156AD8408
(1713504862.727873) vcan0 6F7#72D7AE3838
(1713504862.733269) vcan0 25F#516C19
(1713504862.739543) vcan0 55E#
(1713504862.744911) vcan0 60B#15A2CC02367E
(1713504862.751355) vcan0 0A9#C8748F4D872A
(1713504862.757832) vcan0 373#B4941F2DFE
(1713504862.764283) vcan0 476#9E22EF080316B44C
(1713504862.770717) vcan0 42B#59C3385522FB
(1713504862.775954) vcan0 7FB#5A7FC8245A029860
(1713504862.782373) vcan0 7FF#0D23D87E5DB5CF4B
(1713504862.789254) vcan0 16B#631AE03777
(1713504862.795355) vcan0 04C#AD156D42F5785538
(1713504862.801806) vcan0 1FF#7CA3F92C72
(1713504862.807243) vcan0 55A#
(1713504862.812808) vcan0 7FF#D36770262B0CA021
(1713504862.819244) vcan0 494#4D07235190FC6851
(1713504862.825714) vcan0 5F9#EAFE0032F87D8C63
(1713504862.831735) vcan0 253#55335C2FBFCB815C
(1713504862.837123) vcan0 57D#3663A407C995FF58
(1713504862.843042) vcan0 231#BE0E55
(1713504862.849425) vcan0 358#A2B1787BB340A10C
(1713504862.856659) vcan0 26A#8392
(1713504862.863191) vcan0 720#955EBA0EB56B80
(1713504862.868430) vcan0 584#4568
(1713504862.875017) vcan0 48A#75699475DE5E964E
(1713504862.881462) vcan0 127#9D2A182BA5EE451A
(1713504862.887671) vcan0 283#6E8445
(1713504862.894127) vcan0 6B6#E550D3040E0ADC56
(1713504862.899357) vcan0 567#C14A7D63D22F515B
(1713504862.906340) vcan0 59A#3C826B48BB
(1713504862.912418) vcan0 79C#70
(1713504862.918856) vcan0 6B3#9DE827713E
(1713504862.925383) vcan0 7E4#1C92
(1713504862.931542) vcan0 6DC#B1FF404A60D9D917
(1713504862.937648) vcan0 28C#15CEEF4542510536
(1713504862.944092) vcan0 74C#505BE10CB45C0A05
(1713504862.950380) vcan0 182#868C
(1713504862.955563) vcan0 357#D863
(1713504862.960924) vcan0 793#135802704636F036
(1713504862.966424) vcan0 4FD#
(1713504862.972702) vcan0 2C2#
(1713504862.978404) vcan0 059#FE5A6D6BE502D15E
(1713504862.984035) vcan0 1BE#2754D6
(1713504862.989534) vcan0 00E#BECD1F1C90692F47
(1713504862.995522) vcan0 58A#AD80955F
(1713504863.000874) vcan0 106#D433325D99
(1713504863.006751) vcan0 0CD#E08E1F5CCA3D86
(1713504863.013091) vcan0 497#AC02B806
(1713504863.019555) vcan0 405#F7E0D8495EAC9464
(1713504863.025986) vcan0 638#44AF6543F607
(1713504863.031236) vcan0 509#00795C5717ADC362
(1713504863.036481) vcan0 2E3#A816F3296D080A0C
(1713504863.041780) vcan0 103#4EE159580A
(1713504863.047472) vcan0 3DB#A362
(1713504863.053871) vcan0 109#73BA79
(1713504863.060353) vcan0 1E8#F9CC6427EDDD5F75
(1713504863.066693) vcan0 5B8#4B
(1713504863.074171) vcan0 1E7#E64BB001F04E270D
(1713504863.079799) vcan0 4FB#08FCEA6FDEEF89
(1713504863.085104) vcan0 3A6#
(1713504863.091036) vcan0 205#B3B6BA51E025CE19
(1713504863.096205) vcan0 6BD#89A2C12BC68F3A
(1713504863.101717) vcan0 2DA#67FD593DC2F41159
(1713504863.108189) vcan0 21B#
(1713504863.114427) vcan0 051#C4F3EC403862807C
(1713504863.120891) vcan0 68A#29B1A70985D3563B
(1713504863.126259) vcan0 491#64
(1713504863.132413) vcan0 7E1#
(1713504863.138024) vcan0 54A#C78FA550
(1713504863.144018) vcan0 4EB#
(1713504863.149961) vcan0 74C#888C517E67
(1713504863.156376) vcan0 395#3A59934CE7532C08
(1713504863.161628) vcan0 433#1FB6AC04BD52EA3A
(1713504863.168066) vcan0 4A9#432641763A91C76B
(1713504863.174571) vcan0 479#72A1FA535AD457
(1713504863.181062) vcan0 557#413E2F
(1713504863.187586) vcan0 1E7#A9BED545D35EAF71
(1713504863.193158) vcan0 058#99F6EE16A48FDE
(1713504863.198470) vcan0 3AC#0B
(1713504863.203722) vcan0 259#2813BA5D8C
(1713504863.209294) vcan0 744#4AF11712ED6B1F3A
(1713504863.215060) vcan0 090#27FDE6250A45A278
(1713504863.220983) vcan0 134#6419FA138BA61171
(1713504863.226321) vcan0 4EC#2CE10A33D4
(1713504863.232686) vcan0 5AD#A72D5C5305
(1713504863.239794) vcan0 24C#
(1713504863.246295) vcan0 761#3A15B947
(1713504863.252744) vcan0 0FA#4728
(1713504863.259148) vcan0 1AA#2B
(1713504863.265239) vcan0 11E#4567
(1713504863.271677) vcan0 7EC#DDD8BA6DD864020E
(1713504863.278145) vcan0 04F#AC33AF6FFCFD5874
(1713504863.284628) vcan0 1DF#022493
(1713504863.291148) vcan0 593#24229F5AF52CE22C
(1713504863.297589) vcan0 060#B0B6710E5A493B5A
(1713504863.304292) vcan0 7C1#98A9C51B6B51A5
(1713504863.310786) vcan0 089#A6733A
(1713504863.317128) vcan0 715#FA5BDB6101A77254
(1713504863.323608) vcan0 395#DA0B7562E433FE
(1713504863.329067) vcan0 6E1#E031571EC148
(1713504863.335387) vcan0 0DA#ED14
(1713504863.341841) vcan0 78E#62
(1713504863.347934) vcan0 670#4841
(1713504863.354343) vcan0 10A#
(1713504863.359893) vcan0 0A3#3A0B3F
(1713504863.366292) vcan0 62E#BA462C60
(1713504863.372677) vcan0 40C#A7FD2B71
(1713504863.378943) vcan0 21A#AED30E68F432F529
(1713504863.384475) vcan0 56A#62597B6CF8B4030D
(1713504863.390938) vcan0 7AD#E6AC4C52
(1713504863.397365) vcan0 6D7#4E5C404EE19FC61E
(1713504863.403794) vcan0 10E#7481D375B139D47F
(1713504863.410279) vcan0 72D#6AD98D0B5C7DC12C
(1713504863.416057) vcan0 3E3#1F47EF73
(1713504863.422581) vcan0 2B8#DC1AEA1BD20421
(1713504863.427841) vcan0 44F#C737166DB9F90B3F
(1713504863.434244) vcan0 726#B2AE0F4CD3F61706
(1713504863.440430) vcan0 5ED#F0841F1DC4F4320F
(1713504863.446855) vcan0 1C7#A594F92DD522483D
(1713504863.452908) vcan0 529#875C1C3D566CB564
(1713504863.459396) vcan0 2C8#B2
(1713504863.465912) vcan0 615#9A26
(1713504863.472799) vcan0 599#9FCDE025E8E9
(1713504863.479264) vcan0 001#A1E32B1E2807
(1713504863.485729) vcan0 68F#FBFD62
(1713504863.492222) vcan0 5EC#41C93031B337C518
(1713504863.498664) vcan0 42A#885A0D5653C160
(1713504863.505752) vcan0 400#AA2D1616C816D758
(1713504863.512187) vcan0 500#73ADE37E15433810
(1713504863.518655) vcan0 02E#E20BF872C7BD7417
(1713504863.525131) vcan0 584#AFA7
(1713504863.531053) vcan0 6E8#AD
(1713504863.536812) vcan0 5A4#F549563A900B9407
(1713504863.541990) vcan0 595#43435920BF31
(1713504863.548226) vcan0 11D#13F3E2581EE5A84D
(1713504863.554055) vcan0 4DB#E6FB7F26DC416465
(1713504863.560733) vcan0 019#F1849C7548807943
(1713504863.567035) vcan0 567#0F3EEE5A
(1713504863.572279) vcan0 256#71D842513E493D2D
(1713504863.577549) vcan0 110#B6BE9545B48E3F65
(1713504863.583688) vcan0 7C7#459AD36C5C3DBA01
(1713504863.589290) vcan0 3E2#1C6F3C29FF8C2436
(1713504863.595030) vcan0 354#1D72CD0330D0230D
(1713504863.600318) vcan0 2EC#0C128872
(1713504863.605931) vcan0 75E#4D3B184BC594E257
(1713504863.611969) vcan0 7D1#B127B64227922652
(1713504863.617417) vcan0 71C#66DB
(1713504863.623129) vcan0 540#E05E0C4308951079
(1713504863.628318) vcan0 2C8#64D2CA7AAA
(1713504863.633901) vcan0 6AE#
(1713504863.640108) vcan0 3AF#3222C44D9B263F
(1713504863.646585) vcan0 3CB#A1E1DD1E29434964
(1713504863.653040) vcan0 33C#EED72B3C0DF32979
(1713504863.658919) vcan0 64B#3585504B67F58507
(1713504863.665347) vcan0 7C1#93C552650225D140
(1713504863.673191) vcan0 2B7#0ABAE139
(1713504863.678927) vcan0 599#295CEC0447F44B15
(1713504863.684707) vcan0 5EF#4A46EC
(1713504863.690461) vcan0 59A#3A98191665914C6A
(1713504863.695721) vcan0 4BB#8ED4954EF7676D0C
(1713504863.701575) vcan0 6C9#045B9705152DEA2E
(1713504863.709318) vcan0 41C#7C227036DDAB7E1C
(1713504863.715160) vcan0 0D4#
(1713504863.720772) vcan0 484#0BD9DD7F1D2A611C
(1713504863.726584) vcan0 758#651EAD3147
(1713504863.732072) vcan0 508#E5566C23A242E845
(1713504863.738922) vcan0 52B#07D43430E669460F
(1713504863.745332) vcan0 0FA#DDD1B31BC4
(1713504863.751815) vcan0 511#D92C
(1713504863.758317) vcan0 51B#0BADAE2FF0
(1713504863.764267) vcan0 765#7C891939E943AA52
(1713504863.770543) vcan0 0D4#076E0B6F2C200E
(1713504863.776954) vcan0 7BC#7305A014C474F52D
(1713504863.782412) vcan0 11B#66B7DD7346BE9B53
(1713504863.789534) vcan0 378#2D28E26272B40F60
(1713504863.795744) vcan0 402#36B47A6D1489692C
(1713504863.802286) vcan0 6EC#418A993F08341412
(1713504863.808751) vcan0 065#F881E31FCA671D2B
(1713504863.815239) vcan0 537#B4ABC77D
(1713504863.821078) vcan0 5FB#37DE8410B805B64F
(1713504863.826673) vcan0 627#7C7AAB7D4297DD35
(1713504863.831864) vcan0 002#885579
(1713504863.837367) vcan0 550#ED3FD32E53
(1713504863.843238) vcan0 7C0#677AE2
(1713504863.848442) vcan0 533#B4D2E61C9805B362
(1713504863.854172) vcan0 3F5#626DD00D2CF10A10
(1713504863.859781) vcan0 020#37AF81301CCE
(1713504863.866254) vcan0 2D1#D4D37177F8D8F605
(1713504863.872920) vcan0 118#
(1713504863.878657) vcan0 033#953C20
(1713504863.885085) vcan0 378#D72E
(1713504863.891585) vcan0 0A5#E5596D27D8455F23
(1713504863.898007) vcan0 5E6#704B1206DBE9DD51
(1713504863.904482) vcan0 146#07DBE8
(1713504863.910964) vcan0 1E9#82AFA13EBB04E617
(1713504863.917447) vcan0 7AC#B3DDDC1DC488
(1713504863.923910) vcan0 1A7#DF39F97CDA51D711
(1713504863.929224) vcan0 3B1#5E8F190E
(1713504863.935119) vcan0 2F6#6212436D9B
(1713504863.940455) vcan0 773#74A9AD505A158C
(1713504863.945711) vcan0 0E0#35FF696C
(1713504863.951596) vcan0 5B7#8DFB0871A17F1D0A
(1713504863.957165) vcan0 47B#5C840322287C2E34
(1713504863.963026) vcan0 666#EC04CB6D0D00EF10
(1713504863.969046) vcan0 7FD#E751C622AEC39038
(1713504863.974957) vcan0 53F#D81A390935A8
(1713504863.980501) vcan0 77B#D10B3977EF062750
(1713504863.986797) vcan0 181#491CB36A61
(1713504863.993024) vcan0 229#884C543EE1574909
(1713504863.999491) vcan0 5BB#82D7661337
(1713504864.005976) vcan0 324#5FD65B3A8A21C644
(1713504864.012423) vcan0 5ED#9721B555EB6DDC0E
(1713504864.018884) vcan0 217#99316D4756CFC80C
(1713504864.024472) vcan0 4C5#8C
(1713504864.030211) vcan0 1AB#2FFB366D2C134F52
(1713504864.036005) vcan0 0A2#8E458036CBE27934
(1713504864.041556) vcan0 2F7#AC3AC33DB228
(1713504864.047541) vcan0 22B#E982A45A4FCD3903
(1713504864.052827) vcan0 60C#DAEEFF47FA2BDF7B
(1713504864.059276) vcan0 494#E5
(1713504864.065713) vcan0 3F0#011EDB5CB5D88B3F
(1713504864.070998) vcan0 7F0#F6CC9B5C9B91F169
(1713504864.077450) vcan0 0EA#C8A4403C8C
(1713504864.083941) vcan0 79E#5834C84B9512
(1713504864.089581) vcan0 46C#473B3B25
(1713504864.095248) vcan0 133#E6
(1713504864.101151) vcan0 779#
(1713504864.106488) vcan0 332#B89A192222A7E60A
(1713504864.112255) vcan0 09D#D87F724A8D98DC5C
(1713504864.118701) vcan0 647#282ACE463267FE33
(1713504864.125182) vcan0 4F3#
(1713504864.131075) vcan0 146#26076263B235
(1713504864.136224) vcan0 41B#498C2C694EDD557B
(1713504864.141779) vcan0 09F#
(1713504864.148194) vcan0 2F0#2664646F22E6E4
(1713504864.154330) vcan0 4E5#458DCB4E821DBB5B
(1713504864.160800) vcan0 798#0FB69738E005F642
(1713504864.166350) vcan0 1EB#126DF476DE6E2D31
(1713504864.173940) vcan0 728#
(1713504864.179618) vcan0 2E7#219EA955026F
(1713504864.184927) vcan0 504#504C4C75A3AD4738
(1713504864.190761) vcan0 29B#BCC5A4558B9D3206
(1713504864.196041) vcan0 0A4#AE83
(1713504864.201561) vcan0 0C0#0CBB1D
(1713504864.207675) vcan0 610#39E6EF29FB776D72
(1713504864.213024) vcan0 154#D9E69A237C009043
(1713504864.218844) vcan0 11B#EB68D43B028C7B3C
(1713504864.225359) vcan0 4E0#04FB7136E4615E3E
(1713504864.231258) vcan0 178#880FA676
(1713504864.236563) vcan0 032#9EA98A0D
(1713504864.243040) vcan0 726#60FEC136E627DB67
(1713504864.249091) vcan0 63F#3F08D54E4F5CA622
(1713504864.254333) vcan0 289#4AD41315DD7BB042
(1713504864.260820) vcan0 1C3#597C4006
(1713504864.267226) vcan0 56D#E1464A394D
(1713504864.273716) vcan0 452#321C076DCA1D
(1713504864.279721) vcan0 13A#DD293F2B6CE92419
(1713504864.286162) vcan0 0FE#434A842224004C41
(1713504864.292403) vcan0 0C8#0A2827
(1713504864.298822) vcan0 210#579B9723992CBB1A
(1713504864.305563) vcan0 6C2#76
(1713504864.311712) vcan0 2C5#
(1713504864.318161) vcan0 215#80EA174067F6
(1713504864.324006) vcan0 42C#3114
(1713504864.329157) vcan0 26C#D316DF646A33C440
(1713504864.335592) vcan0 189#8E3310025112
(1713504864.341143) vcan0 1BA#5951A112CAABCF79
(1713504864.347010) vcan0 3E3#
(1713504864.352294) vcan0 451#2B0B5F1E17873E60
(1713504864.358732) vcan0 5AA#
(1713504864.365167) vcan0 0D7#26A6B774032D5B16
(1713504864.370756) vcan0 07D#6A5A1562E9DAB0
(1713504864.377168) vcan0 065#540E7530EF09B15B
(1713504864.383173) vcan0 254#401C
(1713504864.389353) vcan0 57B#D927D1285E29F000
(1713504864.395825) vcan0 249#04D4E4149BB61F25
(1713504864.402264) vcan0 117#B23D5E05C226F504
(1713504864.408691) vcan0 5C0#81D65800978EF73E
(1713504864.415146) vcan0 6C6#9ABB5255433FB607
(1713504864.420671) vcan0 6FF#2D1A677765
(1713504864.425876) vcan0 743#54
(1713504864.431558) vcan0 263#A6D5B57B
(1713504864.437857) vcan0 32E#3D310E39771DC060
(1713504864.444320) vcan0 5BC#12
(1713504864.450728) vcan0 471#95A52A16
(1713504864.457202) vcan0 6C0#C8780A19879D1B
(1713504864.463729) vcan0 0BF#CADC
(1713504864.470224) vcan0 267#235F0774AAD121
(1713504864.476728) vcan0 778#422BD670DC8976
(1713504864.483172) vcan0 60C#BB9194643AB12F06
(1713504864.489646) vcan0 667#B1CEEF6623FCF572
(1713504864.496075) vcan0 03A#F67A2B04
(1713504864.502502) vcan0 488#DC96DF4649BB577A
(1713504864.509060) vcan0 4A3#D0587325
(1713504864.514606) vcan0 406#20C5044F6E8E0C74
(1713504864.521062) vcan0 492#18602E18
(1713504864.526649) vcan0 4BB#E6D50901C7AADF4F
(1713504864.531883) vcan0 442#01
(1713504864.537304) vcan0 29A#CC8699
(1713504864.543300) vcan0 577#7F9FA3
(1713504864.549780) vcan0 24F#483D341CF2BEF448
(1713504864.556520) vcan0 5FF#54546205058AB450
(1713504864.563073) vcan0 3B3#7318C144
(1713504864.569497) vcan0 5B8#4F44FE7074FAA70B
(1713504864.575999) vcan0 3E6#3BA5875B2990
(1713504864.582402) vcan0 1D7#D21A286271ACE75A
(1713504864.587534) vcan0 3F0#459FBE4967F96418
(1713504864.592867) vcan0 362#667B413A
(1713504864.598662) vcan0 51F#A384963A1EBB524A
(1713504864.605736) vcan0 6C7#2445071B7A1A0A
(1713504864.612031) vcan0 26B#BF12754E2430D3
(1713504864.618484) vcan0 623#982A7B370ADAAB22
(1713504864.624978) vcan0 145#336A30
(1713504864.630843) vcan0 110#8E9F096400
(1713504864.636039) vcan0 6A4#67F694
(1713504864.641527) vcan0 598#B78F4207B7F20F1B
(1713504864.647287) vcan0 27D#D6AD626544796974
(1713504864.653709) vcan0 551#BF937326BDDF3116
(1713504864.659461) vcan0 091#E10F0542B526EA1C
(1713504864.665826) vcan0 58D#BF00963FD26ED765
(1713504864.672552) vcan0 24C#EF61
(1713504864.679002) vcan0 7F7#5DD84C049C16395A
(1713504864.684894) vcan0 050#A2E0D96FE8
(1713504864.690856) vcan0 093#A0B0056F106B0432
(1713504864.696089) vcan0 4B4#54E46D260672
(1713504864.701580) vcan0 170#C351F9
(1713504864.707634) vcan0 692#B6C8EE51
(1713504864.712985) vcan0 41D#F28AFD5B69
(1713504864.718779) vcan0 467#C6
(1713504864.724105) vcan0 65E#FB3AA347
(1713504864.729755) vcan0 0E9#97ECBA727C690514
(1713504864.735777) vcan0 3F7#8CD40946AC108F
(1713504864.741277) vcan0 3AD#
(1713504864.747190) vcan0 0F4#1EEFFF3F86
(1713504864.752437) vcan0 619#A56B497136
(1713504864.758074) vcan0 14A#9F78CE2BB2B5BE
(1713504864.763252) vcan0 378#11DA2860D6D1
(1713504864.769703) vcan0 48A#8500FD54737DA542
(1713504864.775133) vcan0 0A9#EFE6AA56A1BCE20D
(1713504864.781553) vcan0 253#4DCD71750086A15F
(1713504864.787601) vcan0 45B#1DD39C6A4FA58542
(1713504864.790063) vcan0 000#6D795F6361725F
(1713504864.791301) vcan0 000#69735F
(1713504864.792415) vcan0 000#6272306B656E
(1713504864.792761) vcan0 474#D5F4A83D8D5A6611
(1713504864.793403) vcan0 000#21212121
(1713504864.798499) vcan0 210#C32C33245BFBFE5F
(1713504864.803686) vcan0 712#0DB1
(1713504864.809060) vcan0 7C8#610CAF4A52F4466A
(1713504864.814868) vcan0 02A#C571EC2CD3D0
(1713504864.820154) vcan0 202#748DDE47
(1713504864.825701) vcan0 42F#55
(1713504864.831866) vcan0 2C0#DA2D
(1713504864.837834) vcan0 7AE#
(1713504864.843976) vcan0 32B#19154222
(1713504864.849595) vcan0 3E7#C8144A69AF9B
(1713504864.857262) vcan0 144#029001366EF19802
(1713504864.863252) vcan0 610#42C2943C132809
(1713504864.868546) vcan0 27C#68ACE54BAB6E
(1713504864.875080) vcan0 278#36F749303855DC16
(1713504864.881524) vcan0 430#6D
(1713504864.887484) vcan0 7C1#9D4D795FECCA881E
(1713504864.893959) vcan0 4B3#29A55B739AA0
(1713504864.900460) vcan0 0DD#493C
(1713504864.907237) vcan0 31C#906B3A212C094464
(1713504864.913677) vcan0 613#3F31
(1713504864.920105) vcan0 588#3A973B3600280624
(1713504864.926619) vcan0 466#39
(1713504864.934789) vcan0 382#755C4B5C43FB
(1713504864.939936) vcan0 7D4#2FC6
(1713504864.945394) vcan0 4C8#21353D7DA5353B34
(1713504864.951131) vcan0 54A#C7AFDC526600E647
(1713504864.956359) vcan0 5B6#93092A2CC90B0E
(1713504864.962364) vcan0 129#5834
(1713504864.968201) vcan0 07A#B2EE2E
(1713504864.974702) vcan0 204#77D5551D860D072B
(1713504864.980182) vcan0 591#C908C47365FD945F
(1713504864.986309) vcan0 3FE#ED919778C6E8E572
(1713504864.992803) vcan0 250#6C1E21279B5FF26C
(1713504864.999256) vcan0 079#0160D8
(1713504865.006012) vcan0 18A#F9813E12
(1713504865.011834) vcan0 467#64F9
(1713504865.018319) vcan0 1E5#C2696441E9DB
(1713504865.024816) vcan0 401#6FE9AA3292616524
(1713504865.030718) vcan0 125#F85EFA03234DC10D
(1713504865.036057) vcan0 130#E935A70080
(1713504865.041340) vcan0 7F3#1B5B16246D
(1713504865.047233) vcan0 288#9D669E4B120CDB0F
(1713504865.052383) vcan0 4B1#C53ED64F18C9
(1713504865.058154) vcan0 6E8#FA858E49CD20FE5A
(1713504865.064053) vcan0 040#B6FCA1624274B16F
(1713504865.069537) vcan0 6F5#D4D516141A
(1713504865.074916) vcan0 05D#3DEDC94F8D99343D
(1713504865.080003) vcan0 5B1#0E955874A5DD
(1713504865.085556) vcan0 77C#12CE771C049AFF19
(1713504865.092026) vcan0 346#17A6DA29F8CF4E2B
(1713504865.098436) vcan0 545#1099B9112EBC8641
(1713504865.104352) vcan0 506#FBDC841C473DF84D
(1713504865.110023) vcan0 6C6#89B1
(1713504865.116453) vcan0 7D7#D5DDF01135982F50
(1713504865.123088) vcan0 42A#C231
(1713504865.128598) vcan0 639#
(1713504865.134167) vcan0 6FA#B9FF
(1713504865.140312) vcan0 241#
(1713504865.146807) vcan0 2AD#B59B8611B3A79B25
(1713504865.153264) vcan0 253#
(1713504865.159484) vcan0 262#D536FD
(1713504865.165897) vcan0 5E1#6FAAD5110BDACF6C
(1713504865.174114) vcan0 7BD#E6
(1713504865.180696) vcan0 302#AB333A2AFC5922
(1713504865.186331) vcan0 0F9#3CBCAB463B
(1713504865.192600) vcan0 135#C2AAC66CE2
(1713504865.198497) vcan0 1BE#960B6B6A11A4EF
(1713504865.203764) vcan0 727#
(1713504865.209154) vcan0 714#C4
(1713504865.215178) vcan0 0AC#007F0A
(1713504865.220792) vcan0 264#60966D07664D
(1713504865.227219) vcan0 64D#62A7592847BFCC6D
(1713504865.232480) vcan0 570#828A930AA6D6257D
(1713504865.238069) vcan0 214#883AF541
(1713504865.244136) vcan0 3BB#E3AF8E1CE23A0022
(1713504865.250642) vcan0 6AF#6C4C8B7BC3BD9B19
(1713504865.256401) vcan0 110#
(1713504865.262833) vcan0 663#25D21D20C8E80310
(1713504865.269143) vcan0 49E#2E363B7DEC
(1713504865.275620) vcan0 291#33
(1713504865.282050) vcan0 130#A706A07644
(1713504865.289239) vcan0 1F9#
(1713504865.295124) vcan0 74E#9608A577FDBD546F
(1713504865.301601) vcan0 408#C07BF0
(1713504865.307781) vcan0 533#D4C6FE579703B04D
(1713504865.314239) vcan0 030#5FECB35DCFDCD774
(1713504865.319613) vcan0 17F#BBAF1A651034DB78
(1713504865.325603) vcan0 01E#126455724E411E15
(1713504865.331602) vcan0 6A3#92D441169CB0CA0B
(1713504865.337080) vcan0 3E9#507E6F6138338006
(1713504865.342917) vcan0 2A2#35F1D475AA5E
(1713504865.348238) vcan0 3E9#C31BB43A1DA1
(1713504865.354684) vcan0 36E#B4A4E1239F0B34
(1713504865.361163) vcan0 391#6EE80B
(1713504865.366472) vcan0 3A0#21B15223BFB3085D
(1713504865.373092) vcan0 217#0DF526
(1713504865.379103) vcan0 7ED#
(1713504865.384435) vcan0 548#0E5FA826EAFF
(1713504865.390352) vcan0 68C#955EFD67
(1713504865.395987) vcan0 53A#936BE344A808CF4E
(1713504865.402472) vcan0 4EF#4714036281D833
(1713504865.408111) vcan0 15A#9255AB6AFA
(1713504865.413328) vcan0 4DE#B908E8
(1713504865.419262) vcan0 3E7#AFA7A463D49B43
(1713504865.425810) vcan0 767#AAC76B42AF
(1713504865.431610) vcan0 0AB#9A04A85D38E75237
(1713504865.438284) vcan0 6FD#AEB104263734D420
(1713504865.444819) vcan0 587#DF
(1713504865.450484) vcan0 588#F712EF5DE2CE07
(1713504865.456956) vcan0 5DC#DC23E704BBE2EA12
(1713504865.463439) vcan0 73D#B051711A248B
(1713504865.469048) vcan0 25D#
(1713504865.475090) vcan0 265#73F6
(1713504865.481590) vcan0 55B#496ADC15588C934D
(1713504865.488258) vcan0 63C#8FC0676EC33BDF
(1713504865.493523) vcan0 138#3A769A77C066767A
(1713504865.499966) vcan0 696#A2
(1713504865.506427) vcan0 1BB#2D7F517EF860BC74
(1713504865.512855) vcan0 614#1CECFA6E71B01225
(1713504865.519269) vcan0 23E#35A26802
(1713504865.525742) vcan0 1B6#B4D7053F12176D32
(1713504865.531931) vcan0 3B6#6AA30000F3F10E6E
(1713504865.538249) vcan0 5F4#B62DEE472C978C37
(1713504865.543718) vcan0 169#
(1713504865.550146) vcan0 522#714C8B67DD1E3633
(1713504865.555973) vcan0 50D#D57FF22721131B0E
(1713504865.562480) vcan0 47D#93
(1713504865.568938) vcan0 705#5EBBF475BB80D50C
(1713504865.575429) vcan0 671#CD9742
(1713504865.581862) vcan0 510#1B84CF700533A01A
(1713504865.587409) vcan0 732#31
(1713504865.592684) vcan0 5C2#9AB04376E482580D
(1713504865.598422) vcan0 3AC#C1A18E40B9889716
(1713504865.604796) vcan0 0AA#DB9BB2242765
(1713504865.610730) vcan0 587#E2CBC3578C0CD921
(1713504865.617202) vcan0 536#47
(1713504865.623749) vcan0 254#D055711664
(1713504865.629388) vcan0 04D#692230277FFFDF5A
(1713504865.635842) vcan0 3BC#1A00FF547EE14438
(1713504865.642292) vcan0 4B9#62649D45
(1713504865.648222) vcan0 5BF#1F39D5
(1713504865.654094) vcan0 7B9#91DB082F40B51B6E
(1713504865.659703) vcan0 468#CCC1F40F
(1713504865.666207) vcan0 6B5#46BD8F20
(1713504865.673636) vcan0 429#6D38C86376D4
(1713504865.679914) vcan0 501#F5D3A834BE7840
(1713504865.685275) vcan0 772#3C5A85362BFCE101
(1713504865.691741) vcan0 4C3#90AC1F6E8232FC7D
(1713504865.697331) vcan0 4C2#ECA8B96A7CECFB70
(1713504865.703237) vcan0 2A9#BCA1175F11EFE417
(1713504865.708741) vcan0 3F2#B0E8C324A75A1475
(1713504865.714500) vcan0 29D#B0A34C4CC626
(1713504865.720973) vcan0 10D#3CFB0C340EA6963A
(1713504865.726548) vcan0 6F4#CC
(1713504865.731850) vcan0 340#917A444103284847
(1713504865.737724) vcan0 7A8#855A
(1713504865.744080) vcan0 4D1#E6E8
(1713504865.750540) vcan0 7F0#8CB6BA
(1713504865.757018) vcan0 62C#890E645FC9A09D5A
(1713504865.763456) vcan0 533#8FC7E13440FE2637
(1713504865.769923) vcan0 656#4EA4BD714BC5D216
(1713504865.775448) vcan0 1FC#B14335563C350244
(1713504865.780728) vcan0 424#3F5D4A
(1713504865.787190) vcan0 565#36703E73
(1713504865.793672) vcan0 336#B1B90C2026434D4A
(1713504865.800134) vcan0 3C0#08F79C34ECD1D73C
(1713504865.806610) vcan0 77A#B5
(1713504865.811786) vcan0 7CA#ED523F58
(1713504865.817692) vcan0 50F#6C0B4A320B8FEA06
(1713504865.824731) vcan0 257#47C4EC4A7BF6820E
(1713504865.830601) vcan0 560#476AF313C5F2
(1713504865.836047) vcan0 14A#FCE40D4E81945227
(1713504865.841545) vcan0 39A#A7D79F715A172469
(1713504865.847561) vcan0 6EB#
(1713504865.853991) vcan0 441#137340660C8CEF79
(1713504865.860484) vcan0 63F#2D
(1713504865.866996) vcan0 53D#5922F94594770E7D
(1713504865.873016) vcan0 4B6#
(1713504865.879492) vcan0 026#DC2C005771E1
(1713504865.885953) vcan0 2D3#F27535356EE6F07F
(1713504865.891773) vcan0 086#C8FD146971BF0A72
(1713504865.898189) vcan0 449#D7DD32378BF04F07
(1713504865.904504) vcan0 30A#977C3F014AD94A56
(1713504865.911009) vcan0 6EC#986C5915
(1713504865.917458) vcan0 45D#BD4B
(1713504865.923932) vcan0 592#2A93B01EB97D5553
(1713504865.929223) vcan0 222#2A5F3861F5444B
(1713504865.935097) vcan0 1DF#632B3C336582E72D
(1713504865.940279) vcan0 2B5#D741F21FFF3E550A
(1713504865.945867) vcan0 03B#8A2FA5114553E477
(1713504865.951933) vcan0 099#8F
(1713504865.957668) vcan0 2E5#AE5BFB344227E207
(1713504865.963409) vcan0 01A#55806936AC9D132B
(1713504865.968993) vcan0 137#
(1713504865.974540) vcan0 387#4F38694366A58965
(1713504865.979865) vcan0 7AB#CC27
(1713504865.985400) vcan0 4DE#60B1A7
(1713504865.991383) vcan0 151#5FF03C36EBF9207F
(1713504865.996652) vcan0 50B#7081AC4FF087BC0B
(1713504866.002382) vcan0 616#32AF9E1330DECF26
(1713504866.008230) vcan0 48A#DD7BE351C2E5AA
(1713504866.014676) vcan0 307#1BD9
(1713504866.020572) vcan0 1D2#F5BB764F7D61FD25
(1713504866.026682) vcan0 51D#DE
(1713504866.033012) vcan0 564#159F263AB5D6D320
(1713504866.039289) vcan0 628#A0D0F41F
(1713504866.045790) vcan0 462#23
(1713504866.052255) vcan0 730#A9409403BA
(1713504866.057533) vcan0 1DD#7C99152EE49C
(1713504866.063064) vcan0 3C9#73B3E83A9B65B255
(1713504866.068355) vcan0 402#18C7AF7B1FF9E737
(1713504866.073927) vcan0 329#1BFBB5338DA092
(1713504866.079203) vcan0 035#
(1713504866.085652) vcan0 1A4#9179B1
(1713504866.092085) vcan0 1F4#7F38D42F24
(1713504866.097782) vcan0 70A#DE7CB037E7788E08
(1713504866.103794) vcan0 5AF#CC158A597889A42E
(1713504866.110270) vcan0 0F3#13EF5604F50CB511
(1713504866.116689) vcan0 0A7#15069D49D08B190C
(1713504866.123292) vcan0 123#
(1713504866.128434) vcan0 360#B6F7381304C56F49
(1713504866.134046) vcan0 382#0A9B7F1C76856A2C
(1713504866.139726) vcan0 5FD#9A4EB05407858373
(1713504866.145097) vcan0 4B3#EFFD117C62829C08
(1713504866.150930) vcan0 1D4#DB0B4137C76ACB34
(1713504866.156093) vcan0 4FA#BC778046A115E108
(1713504866.161567) vcan0 11A#71
(1713504866.166877) vcan0 701#9673A251611AA078
(1713504866.172991) vcan0 16D#65DF0F42F05C2751
(1713504866.179536) vcan0 494#
(1713504866.186022) vcan0 5FA#99
(1713504866.192491) vcan0 47A#0F1D3C334EDEC950
(1713504866.198242) vcan0 143#154995053DB6D45E
(1713504866.203432) vcan0 3D9#DE
(1713504866.208789) vcan0 6A3#31D75872A4BDA369
(1713504866.214241) vcan0 31D#06D843628AAC10
(1713504866.220392) vcan0 613#7A09384BA8929C3B
(1713504866.226305) vcan0 1DB#39
(1713504866.232040) vcan0 4E2#821A
(1713504866.237436) vcan0 25A#AAF7
(1713504866.243281) vcan0 07C#DAF10C015584341C
(1713504866.249701) vcan0 190#4959E87D33405778
(1713504866.256278) vcan0 307#D8FDFA612466CA06
(1713504866.261827) vcan0 341#AF12DB005431135D
(1713504866.268242) vcan0 549#FCC3AF1825BF756B
(1713504866.274708) vcan0 00A#FA3E3C19EC24
(1713504866.281172) vcan0 608#483E982963989B3F
(1713504866.287480) vcan0 10F#00D4
(1713504866.292907) vcan0 6B1#E175980F42784360
(1713504866.299316) vcan0 393#75B89A589BAE1631
(1713504866.306201) vcan0 7A4#BF14E137E57AFE31
(1713504866.312692) vcan0 42B#39AC110F75196767
(1713504866.319108) vcan0 398#9AD8DC52A24B
(1713504866.325562) vcan0 16C#8F709549
(1713504866.331604) vcan0 111#D7D7667D200200
(1713504866.337137) vcan0 4CA#ACF3634E7B5B5E2B
(1713504866.343031) vcan0 1B3#BDD3A10B46F5BE0D
(1713504866.348167) vcan0 0B7#E1A3D5
(1713504866.353339) vcan0 280#40
(1713504866.359119) vcan0 00F#21E80D05A7234234
(1713504866.365538) vcan0 7AF#4A6FEE4D1BD9B27D
(1713504866.371055) vcan0 04F#90187E3B6149BF21
(1713504866.377505) vcan0 6B0#814BBF7C7A73F0
(1713504866.383835) vcan0 43F#F6CE4E1DF20D3B5A
(1713504866.389261) vcan0 0BA#3903FA
(1713504866.395753) vcan0 6E6#CC19DC7D6771FF2B
(1713504866.401585) vcan0 7BB#1340A649CB3FF94C
(1713504866.408069) vcan0 486#72633B01
(1713504866.414498) vcan0 0EF#51D52C133EC1A26A
(1713504866.420942) vcan0 295#9F
(1713504866.426813) vcan0 648#C0
(1713504866.433102) vcan0 54E#7A88EA79093E
(1713504866.439271) vcan0 66A#7A1F01
(1713504866.445732) vcan0 2CE#B7C6BB6289923A
(1713504866.452206) vcan0 653#54D23373D932606C
(1713504866.458680) vcan0 6FE#0F2FDA01ED17B5
(1713504866.465124) vcan0 083#
(1713504866.470795) vcan0 241#5FFCA51B89D0416B
(1713504866.476453) vcan0 1EC#114BF10A3BCF1F76
(1713504866.482346) vcan0 4D6#440D8473405B2329
(1713504866.487722) vcan0 73F#90B0DF5F0D92746F
(1713504866.494193) vcan0 605#9724AF15596C593E
(1713504866.500644) vcan0 612#329FB92A11AD136A
(1713504866.506184) vcan0 4B2#FE
(1713504866.512505) vcan0 2A1#4FF0316BE2C44C25
(1713504866.517930) vcan0 1F6#6C958E10E2BBB552
(1713504866.524457) vcan0 5CD#1D8BD548A3D26105
(1713504866.530216) vcan0 409#E3
(1713504866.535802) vcan0 520#56A59076
(1713504866.542231) vcan0 5BC#7E979A15CED3FD3F
(1713504866.548652) vcan0 0D9#DF
(1713504866.555796) vcan0 4F2#C122605394D7822E
(1713504866.561779) vcan0 408#
(1713504866.567865) vcan0 7BE#E121
(1713504866.573104) vcan0 260#2F70995069C63920
(1713504866.579014) vcan0 560#B2D955
(1713504866.584155) vcan0 487#A535DA6F43D2835E
(1713504866.589783) vcan0 0F6#11A6811E
(1713504866.595880) vcan0 3D5#5B
(1713504866.601312) vcan0 4CF#5BE03361D750684C
(1713504866.607918) vcan0 52D#D6B6
(1713504866.613361) vcan0 6B4#77CA517414C13F
(1713504866.619768) vcan0 5B5#7E87793915CBE3
(1713504866.625534) vcan0 0BA#
(1713504866.631680) vcan0 039#842711303029DC28
(1713504866.637034) vcan0 05F#FF32256834
(1713504866.643002) vcan0 486#FBE4451455619315
(1713504866.649433) vcan0 477#2DB2FB61A471B1
(1713504866.656392) vcan0 229#8F9ECB
(1713504866.662840) vcan0 1BA#F2B11E5D6FC72B
(1713504866.669311) vcan0 3AE#
(1713504866.675768) vcan0 2A0#A9D19F3ADA7A1D76
(1713504866.682243) vcan0 355#0AA4F91EB44BAF67
(1713504866.688779) vcan0 6C2#E827444949BB6950
(1713504866.694494) vcan0 164#9E1CFD65
(1713504866.700133) vcan0 23B#7FB7B4626414817D
(1713504866.705964) vcan0 7CE#410560418879343F
(1713504866.712033) vcan0 715#F84060
(1713504866.718467) vcan0 0A3#2BDFB83C448B7E2C
(1713504866.724702) vcan0 397#1E069C22
(1713504866.730500) vcan0 201#A1FA8E38C4704D1B
(1713504866.735867) vcan0 131#0D2CB76B9582B609
(1713504866.741343) vcan0 76E#70C8B929A9016132
(1713504866.747229) vcan0 777#0D16E22F454FDF0E
(1713504866.753406) vcan0 5FE#CEC8134E13958C09
(1713504866.759866) vcan0 282#D7F7325D25C3
(1713504866.766395) vcan0 543#694E
(1713504866.773043) vcan0 7D7#C7C7BF33D8314E
(1713504866.779107) vcan0 6AF#9CA29B0EE17F3C1E
(1713504866.785475) vcan0 4F3#7602F32761147F4D
(1713504866.791974) vcan0 755#0A16E07FCC2EB4
(1713504866.798405) vcan0 2D6#117E9374D4200A
(1713504866.804416) vcan0 765#E8B59642E719C530
(1713504866.810032) vcan0 0A5#0DDD9C75E82DFF2E
(1713504866.816575) vcan0 4C1#C346DF11980C
(1713504866.823056) vcan0 7FE#713E483EAD7E6D50
(1713504866.828356) vcan0 0F3#8EFEA96EE6B50F20
(1713504866.833932) vcan0 7B7#47CA8E6D0C
(1713504866.839730) vcan0 3EC#D8
(1713504866.845123) vcan0 468#97376F7FCE53353E
(1713504866.850957) vcan0 2C9#B56DFA6E6E0B4801
(1713504866.856327) vcan0 33E#5739
(1713504866.861959) vcan0 639#982C7F6637F66F46
(1713504866.868343) vcan0 6A4#E474DD16985FB339
(1713504866.874829) vcan0 416#7E15C3
(1713504866.881274) vcan0 478#D9C21F4C6440
(1713504866.887504) vcan0 017#26
(1713504866.893996) vcan0 49B#4E20271064E7C362
(1713504866.900342) vcan0 43C#D2F20B
(1713504866.906820) vcan0 0C6#7A379D09FF4E432F
(1713504866.913692) vcan0 443#3645
(1713504866.920177) vcan0 71B#809AF217311B8F06
(1713504866.926132) vcan0 58D#FF16713F05A23C2E
(1713504866.931429) vcan0 7C4#69E2AA32DC4FC86D
(1713504866.936687) vcan0 28A#
(1713504866.942408) vcan0 04D#89A6FD658A440954
(1713504866.948117) vcan0 2AD#045C214273A3BB32
(1713504866.954379) vcan0 585#72F2FE61C871D634
(1713504866.960821) vcan0 790#B0AC1513ABC6BE50
(1713504866.967263) vcan0 1C3#
(1713504866.973732) vcan0 72F#56C19724F386C555
(1713504866.980213) vcan0 2B4#CFD68D433E65F272
(1713504866.986635) vcan0 54F#63242C769DA5811C
(1713504866.993115) vcan0 7D5#27EA8A7083FA2B22
(1713504866.999526) vcan0 448#F69DE754CD299004
(1713504867.006181) vcan0 1AA#959B66393AD1453A
(1713504867.012683) vcan0 011#E697040BD4B9
(1713504867.017896) vcan0 776#25D936
(1713504867.024160) vcan0 29F#990D086A5345611B
(1713504867.029785) vcan0 63A#92AA530E8A1BD239
(1713504867.035911) vcan0 794#27C1535669
(1713504867.041167) vcan0 1E2#EC0133262AFEDC06
(1713504867.047005) vcan0 179#F7276D
(1713504867.053414) vcan0 04C#5E9C3B325DF89940
(1713504867.059899) vcan0 3D2#32B27533
(1713504867.066313) vcan0 607#EE21171DA620A4
(1713504867.072809) vcan0 5D2#F96505340C648C
(1713504867.079286) vcan0 3F0#967F5E4984EB9265
(1713504867.085728) vcan0 781#EDF2996963798227
(1713504867.091251) vcan0 40B#8D775F2E85DD1B60
(1713504867.097115) vcan0 4BD#A8A81158
(1713504867.103563) vcan0 310#66BD827DE36E
(1713504867.108975) vcan0 14A#2C0AC51851272067
(1713504867.115409) vcan0 2EF#F747C47FC1202078
(1713504867.120751) vcan0 3A2#CE
(1713504867.126443) vcan0 67C#165B4357
(1713504867.135104) vcan0 522#60177E
(1713504867.140507) vcan0 2DD#B20E6A379AD7915B
(1713504867.146132) vcan0 671#A39C7A1882914A4B
(1713504867.151695) vcan0 461#65003B5BAC755661
(1713504867.157022) vcan0 1A2#FD
(1713504867.163420) vcan0 6AB#53E5BA0C4D
(1713504867.169839) vcan0 2E6#DF
(1713504867.175209) vcan0 686#60EF222FA8
(1713504867.181672) vcan0 2F9#
(1713504867.186811) vcan0 5AE#71C5E41C1FC42873
(1713504867.192104) vcan0 2E3#A155733E
(1713504867.197233) vcan0 41E#F01C836FC185
(1713504867.202571) vcan0 097#534AED2643978A37
(1713504867.207789) vcan0 6E3#9029621EC931
(1713504867.213283) vcan0 1C8#
(1713504867.219215) vcan0 065#F6BBB1035E335E17
(1713504867.224442) vcan0 14C#3521B158FA0EA357
(1713504867.230206) vcan0 453#19D3CB4A363F
(1713504867.235882) vcan0 0BA#7BE6A718D9045276
(1713504867.241348) vcan0 6C1#9A8AA40859DF9B30
(1713504867.246918) vcan0 559#9C7626683C5C5940
(1713504867.252122) vcan0 493#058E923C5B9E492B
(1713504867.258801) vcan0 39C#A9
(1713504867.265252) vcan0 3BC#6087863B08FD9A79
(1713504867.270940) vcan0 36B#020C3E51BE
(1713504867.277397) vcan0 73B#F5D63F2EF6D7C234
(1713504867.283827) vcan0 7D7#
(1713504867.289670) vcan0 0DB#F165D278357E370F
(1713504867.296090) vcan0 456#71DA904FE9408546
(1713504867.302565) vcan0 4BA#45DFCE715648F4
(1713504867.307960) vcan0 1A8#589C1C0964FD8C7F
(1713504867.314378) vcan0 08E#6DFA2779F9EBC434
(1713504867.319685) vcan0 44E#B78389588A5BA862
(1713504867.326151) vcan0 58B#80336B1762EDB80B
(1713504867.332299) vcan0 01C#FB73EF53F8D8C31C
(1713504867.337921) vcan0 7B8#2D57FB2B0EB48459
(1713504867.344337) vcan0 67A#F7F4092034333C15
(1713504867.349976) vcan0 215#8A7B307ABD13C63E
(1713504867.356033) vcan0 22B#221153
(1713504867.362533) vcan0 39C#B22E5038EA07CB20
(1713504867.368997) vcan0 1FE#746373038AF75068
(1713504867.374912) vcan0 516#ECE40974
(1713504867.381501) vcan0 743#2AFE1702FB1E98
(1713504867.387802) vcan0 2D4#09D31C2D4EE975
(1713504867.394283) vcan0 6F6#82
(1713504867.400720) vcan0 43D#C934157068F6723B
(1713504867.406306) vcan0 7EF#2139FE3E8BEB1F1D
(1713504867.412729) vcan0 17A#76F3EA
(1713504867.419172) vcan0 23D#025B15505327CB1F
(1713504867.425639) vcan0 5DF#854C1F0522959B39
(1713504867.431911) vcan0 0D6#
(1713504867.437557) vcan0 007#F8B44963FD26EA
(1713504867.443570) vcan0 728#0948391066EB7666
(1713504867.450032) vcan0 187#CEE1
(1713504867.456214) vcan0 2BD#
(1713504867.461357) vcan0 2C3#AF775E7C009D5E60
(1713504867.467841) vcan0 762#53C4
(1713504867.473097) vcan0 2A1#64D24F1477ABAB1C
(1713504867.479511) vcan0 389#2277
(1713504867.485947) vcan0 5A9#8E22B520D25C4B63
(1713504867.492417) vcan0 595#3848C2491C67A3
(1713504867.498829) vcan0 769#9280B14A26AA
(1713504867.504581) vcan0 4F6#5DBE8D74
(1713504867.510508) vcan0 60C#BA6429056FCD6F05
(1713504867.516973) vcan0 0BE#B00A24605F1BF34D
(1713504867.523047) vcan0 1E7#D7C69E6A
(1713504867.528402) vcan0 396#0091E7584071CB71
(1713504867.533981) vcan0 213#12CE1655A867AC24
(1713504867.540060) vcan0 625#C4CE4F0D8E05C85B
(1713504867.546553) vcan0 050#B4AFBB3B478519
(1713504867.551999) vcan0 4EB#01
(1713504867.557885) vcan0 41E#6720492EDCAC955E
(1713504867.563924) vcan0 2C9#3CC8882CB014FD
(1713504867.570141) vcan0 02C#20AA19
(1713504867.576621) vcan0 50C#02
(1713504867.583106) vcan0 6AF#C89ED92C
(1713504867.589617) vcan0 15E#6312F100AF011909
(1713504867.595766) vcan0 4E3#F6863260CF910B34
(1713504867.602225) vcan0 029#C7E4E45C47D42B
(1713504867.608429) vcan0 5B2#2481C16C7C608563
(1713504867.614949) vcan0 045#
(1713504867.621218) vcan0 073#34A454357FA5B76F
(1713504867.626446) vcan0 26E#9EDCE4771D49
(1713504867.632755) vcan0 44B#F255643DA9ED
(1713504867.639110) vcan0 0F3#58EF5F27D6A5
(1713504867.644297) vcan0 26E#A5371E25975AF867
(1713504867.650733) vcan0 245#DF2E2476F8CFCD40
(1713504867.656266) vcan0 19A#743053
(1713504867.662415) vcan0 163#
(1713504867.668160) vcan0 4ED#5577591C5B
(1713504867.674636) vcan0 7BC#79684A
(1713504867.681069) vcan0 75A#B0C98F764DB8E417
(1713504867.687479) vcan0 6C1#235EF7082F510662
(1713504867.693947) vcan0 757#C7ABFE499D792B09
(1713504867.699119) vcan0 235#9549F949D0D3
(1713504867.704243) vcan0 2A9#B02516640C84381F
(1713504867.709791) vcan0 7A9#E2
(1713504867.715850) vcan0 687#F203A30F438E91
(1713504867.722889) vcan0 12A#4A6ADA3084F06E35
(1713504867.728239) vcan0 2D7#D1A8534D9851A00A
(1713504867.734672) vcan0 503#C8A2A66C5B
(1713504867.741092) vcan0 4BE#F8950774F34E7934
(1713504867.747518) vcan0 135#C322C371DEB3D019
(1713504867.753998) vcan0 196#EA3709
(1713504867.760482) vcan0 075#D65D0370FCD6331D
(1713504867.767401) vcan0 303#3F65C5752D7C8969
(1713504867.772599) vcan0 634#B26CF81E0BF92F1E
(1713504867.778875) vcan0 383#A44AD0
(1713504867.784685) vcan0 478#E20C407E36B9F746
(1713504867.790912) vcan0 3FB#2A08717B3065E442
(1713504867.796051) vcan0 267#0E19B55CFDDB955C
(1713504867.796922) vcan0 000#6D795F6361725F
(1713504867.797834) vcan0 000#69735F
(1713504867.798700) vcan0 000#6272306B656E
(1713504867.799787) vcan0 000#21212121
(1713504867.801472) vcan0 361#3C550510D66B4540
(1713504867.806836) vcan0 6C4#D24279
(1713504867.812014) vcan0 4DC#F4
(1713504867.817151) vcan0 79A#1CDC72181D7B
(1713504867.823371) vcan0 02A#
(1713504867.828822) vcan0 42C#D90D16062750
(1713504867.834375) vcan0 360#57B5BA
(1713504867.841021) vcan0 0F0#C479B25851
(1713504867.846803) vcan0 75D#27
(1713504867.852080) vcan0 214#E837897AF0966F68
(1713504867.857445) vcan0 30A#007AB262A482A41C
(1713504867.863038) vcan0 083#C2FD8C64AD488E78
(1713504867.869444) vcan0 4DC#4F9DAC370891
(1713504867.875420) vcan0 1ED#2FE1F8354DFD3965
(1713504867.881833) vcan0 12B#159B56611C02
(1713504867.887714) vcan0 4EB#6DB6CD5F48845136
(1713504867.892912) vcan0 3DA#69822129EE
(1713504867.899327) vcan0 18E#DE
(1713504867.905901) vcan0 02E#3DC7CD60B1B87D0B
(1713504867.912305) vcan0 4FB#5E010C04D849310E
(1713504867.918764) vcan0 666#E0DA532153109A1E
(1713504867.925266) vcan0 1D6#
(1713504867.931231) vcan0 296#1D0DCA6682
(1713504867.936433) vcan0 58F#CA3B750769A1F441
(1713504867.942048) vcan0 220#5807764D
(1713504867.948436) vcan0 085#4718007EB320
(1713504867.954892) vcan0 315#64D9356F11
(1713504867.961210) vcan0 484#E991
(1713504867.967645) vcan0 170#3DE3F64746C37528
(1713504867.974109) vcan0 0D9#47CE3A61707BA563
(1713504867.980605) vcan0 193#F232C93422
(1713504867.987060) vcan0 6F0#8CF81D1210391027
(1713504867.993415) vcan0 4F0#BE0CE760
(1713504867.998945) vcan0 41A#29C6CE24307F
(1713504868.006057) vcan0 48B#41C7D8220FA9DD61
(1713504868.012470) vcan0 250#FA7B3A0BC0F34036
(1713504868.018995) vcan0 5F3#06B7B65ECDEEDA
(1713504868.024975) vcan0 015#3D6A8008A9E9F14F
(1713504868.030792) vcan0 0B3#CB401B20A3FF9216
(1713504868.036086) vcan0 3EB#B338A33DDC385D
(1713504868.041663) vcan0 13B#52
(1713504868.047678) vcan0 277#86BCCD6B026F263B
(1713504868.053020) vcan0 409#1218041D5ABE8D
(1713504868.059451) vcan0 4F1#1AB2CE1DE4A2B95D
(1713504868.065877) vcan0 343#B1
(1713504868.072311) vcan0 66F#022D5E6A224F6D44
(1713504868.077545) vcan0 11D#C54E005B09A5E641
(1713504868.083986) vcan0 725#E5DD432860E07F4E
(1713504868.090122) vcan0 4E9#B61D480161379F
(1713504868.096519) vcan0 0B2#63A6C56FBCA4417C
(1713504868.101872) vcan0 603#1663CF63F4
(1713504868.108409) vcan0 281#
(1713504868.114862) vcan0 651#1E89E44AC06C9A3A
(1713504868.121177) vcan0 379#
(1713504868.126332) vcan0 3ED#9FA9E81A12CB6E
(1713504868.132545) vcan0 21F#73ABEE4A
(1713504868.139248) vcan0 3BB#6A96785E6EA4DE2E
(1713504868.145717) vcan0 366#2A49202B69010935
(1713504868.152122) vcan0 343#
(1713504868.158590) vcan0 170#89938840C23FB1
(1713504868.165002) vcan0 1C1#82AC4B493AF574
(1713504868.170204) vcan0 2C7#D1F9764CB5
(1713504868.176652) vcan0 30C#
(1713504868.183009) vcan0 2F5#3564E03EB06E703D
(1713504868.189570) vcan0 664#1E134F6CCAD94C4D
(1713504868.195869) vcan0 76C#33DB5502AF329F46
(1713504868.201561) vcan0 088#74
(1713504868.209439) vcan0 1C8#BB099E458ABBB31C
(1713504868.214842) vcan0 0A5#C4B028106C035563
(1713504868.220083) vcan0 6A2#21FAC063AF
(1713504868.225530) vcan0 606#DB969F0EFB788B6E
(1713504868.231553) vcan0 123#
(1713504868.236737) vcan0 5AF#5139B2091B2D7056
(1713504868.242509) vcan0 712#CB5F0F1D9B
(1713504868.248940) vcan0 416#9429060DDF5D8922
(1713504868.254433) vcan0 43C#69193D3FE1249C2D
(1713504868.260956) vcan0 18C#4E28F1102F08CB38
(1713504868.267502) vcan0 4C3#DE996332C9C20470
(1713504868.273218) vcan0 658#C43B905E7C07B37D
(1713504868.278379) vcan0 3C9#0367183A78215C79
(1713504868.284048) vcan0 639#934ECC4F4C
(1713504868.289683) vcan0 4DA#E7D4AA28F0E07938
(1713504868.295074) vcan0 69D#CF3E035BDA82916B
(1713504868.300249) vcan0 1CA#BBA72D19561BE369
(1713504868.305905) vcan0 266#8523AE222997AB15
(1713504868.311945) vcan0 279#F259B0
(1713504868.318394) vcan0 61C#4DD8D171E519
(1713504868.324871) vcan0 125#5D
(1713504868.330674) vcan0 7A6#AB
(1713504868.335819) vcan0 04F#7075
(1713504868.341196) vcan0 00D#
(1713504868.347063) vcan0 478#2D6D
(1713504868.353440) vcan0 18C#07C696
(1713504868.359048) vcan0 616#D684047D333C9E42
(1713504868.365584) vcan0 5AF#18563667
(1713504868.371087) vcan0 475#3446F8561B7C
(1713504868.376351) vcan0 367#9B10FD49B653874D
(1713504868.381933) vcan0 471#A31ABE087ED49E0A
(1713504868.387657) vcan0 24B#55268555C4464802
(1713504868.393094) vcan0 5ED#A275
(1713504868.399095) vcan0 435#7ECB76624C724F0E
(1713504868.404288) vcan0 3A3#7FAEED50
(1713504868.410715) vcan0 578#2880ED53ED4912
(1713504868.417108) vcan0 60D#08C6877374B13930
(1713504868.423572) vcan0 13B#2B05C1
(1713504868.429527) vcan0 4AF#2AE2BF38FA968614
(1713504868.435859) vcan0 439#BEDDCE1626DA8125
(1713504868.442264) vcan0 401#9F
(1713504868.448433) vcan0 70B#8332A908AEEADD6D
(1713504868.454105) vcan0 571#01FC
(1713504868.460535) vcan0 599#D7046978A77B094F
(1713504868.466960) vcan0 285#
(1713504868.473495) vcan0 183#6CA97E0F32FE
(1713504868.479082) vcan0 215#2D957F3D4ED6
(1713504868.485607) vcan0 415#74B00A5F1730176F
(1713504868.492108) vcan0 64C#4EF070
(1713504868.498522) vcan0 730#06
(1713504868.505645) vcan0 3D3#8B2703106CE96B
(1713504868.512109) vcan0 031#136575
(1713504868.518534) vcan0 743#77967E11C698D21D
(1713504868.524686) vcan0 475#F996CB
(1713504868.530406) vcan0 37A#D8ECC8658F5F
(1713504868.536063) vcan0 711#A68FD62E5E65EA1C
(1713504868.541727) vcan0 75F#B5BA0717
(1713504868.547785) vcan0 2C5#310B456398A61256
(1713504868.553200) vcan0 6C3#05907E33F4EE4B18
(1713504868.559667) vcan0 71F#AAE96C4862561170
(1713504868.565153) vcan0 747#29
(1713504868.570823) vcan0 005#4762
(1713504868.576291) vcan0 248#
(1713504868.582723) vcan0 46C#B7B67E4ECC
(1713504868.588030) vcan0 2A9#5BCACF106F9D6375
(1713504868.593509) vcan0 428#0744764BEBA2FE47
(1713504868.598958) vcan0 049#DF914A6068671163
(1713504868.604433) vcan0 125#CBBD22536C50956A
(1713504868.610901) vcan0 3AB#299CFE1E
(1713504868.617321) vcan0 316#2F
(1713504868.623782) vcan0 591#B7364540FD396051
(1713504868.629235) vcan0 4F3#C965977F9CA75043
(1713504868.634513) vcan0 6DC#0B45B43804
(1713504868.640080) vcan0 5B1#F06DD2
(1713504868.645745) vcan0 51F#6375EA4E44260862
(1713504868.652172) vcan0 359#B1769D4C0577772C
(1713504868.658671) vcan0 022#B532032A3813CA38
(1713504868.665057) vcan0 14B#96F87A47DC
(1713504868.671194) vcan0 423#DA98BE0216599669
(1713504868.677670) vcan0 4BC#B200E7
(1713504868.683355) vcan0 6C8#9D46A2637A343917
(1713504868.689654) vcan0 6D1#74421203F02BE56C
(1713504868.695176) vcan0 45C#3552ED4EB62F66
(1713504868.700599) vcan0 305#BBA6DD5B27CB
(1713504868.706139) vcan0 3C0#
(1713504868.712052) vcan0 355#E84BC92378
(1713504868.717568) vcan0 643#8E58
(1713504868.724013) vcan0 366#98
(1713504868.729524) vcan0 6FF#A846D452D0
(1713504868.735543) vcan0 1C2#C0999F751E4E1E0E
(1713504868.740884) vcan0 0F4#D47D843DFA
(1713504868.746636) vcan0 4DB#21F70A139C903E67
(1713504868.753051) vcan0 600#A8
(1713504868.759483) vcan0 476#
(1713504868.765902) vcan0 653#B9D51F4FB991D84C
(1713504868.771109) vcan0 29D#E7
(1713504868.777568) vcan0 186#
(1713504868.784007) vcan0 3AD#6641580AA1B41159
(1713504868.790470) vcan0 522#9BE0FE74FE49725B
(1713504868.795742) vcan0 3CA#9ADAB042CAE18100
(1713504868.801896) vcan0 53E#2033
(1713504868.807804) vcan0 1D2#6E0CCB3E25D0C73D
(1713504868.814231) vcan0 54A#DE61A00AE82FB1
(1713504868.820312) vcan0 678#84D12437FEAF
(1713504868.825503) vcan0 056#46
(1713504868.831459) vcan0 21E#A4189C78401F7B2A
(1713504868.836851) vcan0 3E7#
(1713504868.842669) vcan0 0FD#7C695D213B7EA140
(1713504868.848036) vcan0 41A#EFD7F345EDBDC57E
(1713504868.853412) vcan0 08A#128E8D3CD54DF53C
(1713504868.859220) vcan0 684#BD
(1713504868.865695) vcan0 5B7#FA
(1713504868.871071) vcan0 032#
(1713504868.876806) vcan0 4ED#91D9B944
(1713504868.883287) vcan0 3F4#8680F746F12C0444
(1713504868.889539) vcan0 6A8#2CABA5
(1713504868.895786) vcan0 69F#AFE003772AA7CE12
(1713504868.902251) vcan0 779#FFF4
(1713504868.908720) vcan0 6B3#FA4A2C726A540155
(1713504868.915138) vcan0 1FD#773A9F1D30
(1713504868.921796) vcan0 035#80AC920322DDC2
(1713504868.927397) vcan0 73B#F7
(1713504868.933542) vcan0 0E1#2170EF78894F3926
(1713504868.939678) vcan0 080#4B72771E20C73659
(1713504868.946125) vcan0 66A#4A6E056CE3058717
(1713504868.952548) vcan0 1BD#E13389797020CC43
(1713504868.959057) vcan0 605#DA74CD1802986945
(1713504868.965504) vcan0 6D1#32
(1713504868.971146) vcan0 3D8#29FC3F
(1713504868.976710) vcan0 4C4#
(1713504868.982959) vcan0 09D#2ED5C9331E
(1713504868.989654) vcan0 1B3#3E3057261D885E16
(1713504868.994943) vcan0 275#008EE52D325CC930
(1713504869.000251) vcan0 1D1#A27C
(1713504869.005928) vcan0 0BE#D86FC35A8FD75D72
(1713504869.011982) vcan0 0CD#95F6DA33A5D40300
(1713504869.017548) vcan0 0BE#B8EFC32282ED6D36
(1713504869.022752) vcan0 4DE#2873FE437CED2E66
(1713504869.028394) vcan0 461#9A564F331406
(1713504869.033649) vcan0 7D0#318E982F452AC631
(1713504869.039641) vcan0 560#77
(1713504869.046045) vcan0 613#07FF824FD11E1118
(1713504869.052471) vcan0 495#60F66E0A62955728
(1713504869.058967) vcan0 0EA#076A5B28A899
(1713504869.065410) vcan0 7B4#
(1713504869.071071) vcan0 7BC#0F92CD
(1713504869.077224) vcan0 2A9#31CAD2297AD2D62B
(1713504869.082411) vcan0 781#BFFC
(1713504869.087591) vcan0 493#12BCEF4CA752D6
(1713504869.093022) vcan0 650#7871E753E67AD97B
(1713504869.098812) vcan0 1F8#48103124E392807A
(1713504869.105885) vcan0 4CF#
(1713504869.112327) vcan0 410#16D9A34CCC7B
(1713504869.118765) vcan0 609#E93FD36DB3
(1713504869.125317) vcan0 3CE#2DC3C8074FC3515A
(1713504869.131638) vcan0 27C#3058186D0FD7FA27
(1713504869.137476) vcan0 323#B629
(1713504869.144088) vcan0 75B#5A44BD3854F9331D
(1713504869.150218) vcan0 308#378C
(1713504869.156206) vcan0 6F2#5A8C
(1713504869.162279) vcan0 479#CE
(1713504869.168728) vcan0 096#350B0468652458
(1713504869.174486) vcan0 0D1#B4E7
(1713504869.180916) vcan0 64F#5DA2E63C72
(1713504869.187376) vcan0 427#E69AA8
(1713504869.192901) vcan0 742#
(1713504869.198030) vcan0 3E3#21C22E21D502CF76
(1713504869.203407) vcan0 1D0#D8A5F53749CEE852
(1713504869.208773) vcan0 3ED#CCE8FA5E8384
(1713504869.214579) vcan0 35E#E8
(1713504869.220202) vcan0 264#7D57511BB350FE0B
(1713504869.225334) vcan0 082#2522C306A9249470
(1713504869.231225) vcan0 5ED#2C48D97A302D6051
(1713504869.236613) vcan0 44C#7A97DF
(1713504869.242164) vcan0 611#05D3F472E26F7B22
(1713504869.248569) vcan0 018#2B3E6475055C2D53
(1713504869.256024) vcan0 583#88E03257E160CC
(1713504869.262463) vcan0 2F9#11
(1713504869.268945) vcan0 20E#102E285E90EA610D
(1713504869.275408) vcan0 668#390FF67D55
(1713504869.282456) vcan0 541#85310B288EA9
(1713504869.287609) vcan0 469#
(1713504869.292974) vcan0 29C#5D3A
(1713504869.298887) vcan0 59F#B926186A23036F6D
(1713504869.305591) vcan0 780#04
(1713504869.312075) vcan0 0B2#D6976856C0
(1713504869.318584) vcan0 5A3#5095D52C0BD4
(1713504869.325066) vcan0 61B#61D856755D23D33C
(1713504869.330912) vcan0 3F0#EBCCFB0E59B8
(1713504869.336114) vcan0 2E6#D4825E3B82F5454E
(1713504869.341636) vcan0 36B#36
(1713504869.347674) vcan0 5BA#2D5C2A783AD5DD57
(1713504869.352878) vcan0 631#B38F
(1713504869.358698) vcan0 147#A429E37EEBA6C345
(1713504869.364070) vcan0 56F#F67A6F64
(1713504869.369584) vcan0 37E#E726653D6E5F1F
(1713504869.375536) vcan0 53E#C817
(1713504869.381073) vcan0 27B#A725BB4AE6CD3848
(1713504869.386862) vcan0 7CE#F026F452888DB33D
(1713504869.392122) vcan0 4CD#C2629115FEBAC80F
(1713504869.397648) vcan0 350#E139386F97
(1713504869.403459) vcan0 1FE#82FB1A5F6D
(1713504869.408763) vcan0 27A#F70ADB0BF8855870
(1713504869.414510) vcan0 1D0#67E5776A0E277914
(1713504869.420941) vcan0 5B1#3357EE102C604C3F
(1713504869.426054) vcan0 7CB#122E850799EF4466
(1713504869.431649) vcan0 2B7#217DF8
(1713504869.436980) vcan0 021#82EA92
(1713504869.442326) vcan0 258#08707353
(1713504869.448822) vcan0 7E9#C3F3B35A63AABA11
(1713504869.455649) vcan0 204#5C301302D4AB6913
(1713504869.461961) vcan0 09A#E3D2E2
(1713504869.468410) vcan0 2F2#78B6BC04BDAA
(1713504869.474893) vcan0 6F0#579AB20DA7091020
(1713504869.481349) vcan0 18D#2C39DA2AAE11530C
(1713504869.487609) vcan0 75C#1F2D6F46B4C96C16
(1713504869.494075) vcan0 012#0BB6D765FCCF1E47
(1713504869.499257) vcan0 0B3#5F7AD958B7EA8942
(1713504869.505929) vcan0 089#8B96F35523D9E956
(1713504869.512354) vcan0 07E#6F2F5A1C70D35657
(1713504869.517654) vcan0 384#2E7EC47E743A22
(1713504869.523048) vcan0 271#1C44326BFF
(1713504869.528413) vcan0 7FD#AD15672059275729
(1713504869.534198) vcan0 0F6#0EF1C33F09E9B12A
(1713504869.539382) vcan0 7F5#05B9D071A8E8294D
(1713504869.545854) vcan0 0E7#5FD3B30F
(1713504869.552110) vcan0 620#94D22B649E9E0E6D
(1713504869.558606) vcan0 359#0F7265
(1713504869.564521) vcan0 7EA#52A147655CB2F54E
(1713504869.571073) vcan0 0C2#5BB60963BF38C30D
(1713504869.577560) vcan0 2B6#19601A37AC030042
(1713504869.583777) vcan0 6D5#B5ECB16CCAEEFF
(1713504869.590002) vcan0 040#72D729382749A102
(1713504869.595253) vcan0 11F#98
(1713504869.600540) vcan0 4BC#DD55D23B15E80211
(1713504869.606121) vcan0 730#F24E282B1BFF3116
(1713504869.611982) vcan0 029#77B12765
(1713504869.617432) vcan0 5B2#ABF9
(1713504869.623465) vcan0 3DA#153C7009
(1713504869.628917) vcan0 2EB#7A31E9202BA3386B
(1713504869.634719) vcan0 685#52ECD96DA4A7D17D
(1713504869.640110) vcan0 3BE#E35E954C7AC8754E
(1713504869.646582) vcan0 418#
(1713504869.653057) vcan0 4AD#635A
(1713504869.659529) vcan0 7C6#C2F5035F79C5FA7B
(1713504869.665927) vcan0 3AC#E1FD6A4387A78E75
(1713504869.672412) vcan0 131#37EA772B1CF4
(1713504869.678952) vcan0 2C1#47
(1713504869.684210) vcan0 49E#EAD873155DD86446
(1713504869.690660) vcan0 284#D7A0DA149CF6046F
(1713504869.697114) vcan0 48D#E55166553A6910
(1713504869.702489) vcan0 0E9#119E113FAF40051A
(1713504869.707644) vcan0 023#280600
(1713504869.713002) vcan0 340#56D32F5371CC8975
(1713504869.719465) vcan0 600#8DC0F21BC1A04369
(1713504869.725579) vcan0 13F#07D2E500
(1713504869.731834) vcan0 36D#3A
(1713504869.738378) vcan0 2BE#8E84
(1713504869.743676) vcan0 079#8638E4
(1713504869.749126) vcan0 2BC#115A0959DF3A62
(1713504869.754490) vcan0 26A#AE660352AAEDEA50
(1713504869.760966) vcan0 444#1BBA744644
(1713504869.767416) vcan0 792#0643FE57D1D0E36E
(1713504869.773919) vcan0 27C#AFCE605FEAAD0B3D
(1713504869.780386) vcan0 7FF#DC3B5467BDA2A067
(1713504869.786881) vcan0 3FB#0972744A74E40E22
(1713504869.793375) vcan0 6DE#
(1713504869.799872) vcan0 127#7954652492EB5968
(1713504869.805982) vcan0 022#3CD94439661C9A
(1713504869.812286) vcan0 52C#AABE5460BFEC763F
(1713504869.818727) vcan0 600#
(1713504869.824541) vcan0 6BE#678E282FBDD67400
(1713504869.830444) vcan0 129#7A7915
(1713504869.835674) vcan0 2AD#99310C28
(1713504869.841081) vcan0 614#253B77363B173108
(1713504869.847916) vcan0 757#CD028B70793F616C
(1713504869.859481) vcan0 2C6#DF5BFB5DF23FE16C
(1713504869.865952) vcan0 762#B12C582C627DAA0B
(1713504869.872565) vcan0 43A#DF5D
(1713504869.879018) vcan0 681#B5094F08AAA7
(1713504869.885473) vcan0 689#
(1713504869.891603) vcan0 6B4#C262FF60C804D175
(1713504869.898022) vcan0 5D7#031C027E2FDDD006
(1713504869.903419) vcan0 586#A8
(1713504869.909366) vcan0 2DB#3FB879303D6AE641
(1713504869.915768) vcan0 312#
(1713504869.921216) vcan0 732#45E2FA0DB445F31F
(1713504869.926503) vcan0 1C5#5EED5F2C4FE8B43B
(1713504869.932042) vcan0 72A#86294016DEDD9C29
(1713504869.937622) vcan0 095#A6E26D1F6D5ED53C
(1713504869.942909) vcan0 230#9C3BA643B7570901
(1713504869.949388) vcan0 57B#03D0A144
(1713504869.955844) vcan0 0CC#9382
(1713504869.962397) vcan0 533#2B13
(1713504869.968435) vcan0 7B1#
(1713504869.974046) vcan0 16A#C6C9263395509748
(1713504869.980438) vcan0 1A5#732E34723B5ACF0D
(1713504869.986888) vcan0 794#A8B8A44AC5A95C4F
(1713504869.993358) vcan0 7C4#7C016650
(1713504869.999801) vcan0 488#9545695F551D294D
(1713504870.006163) vcan0 1C2#3381AC64F5C6105C
(1713504870.012496) vcan0 25A#5A0383650CE2A478
(1713504870.017844) vcan0 1CE#83C31670
(1713504870.024340) vcan0 4EC#CEBB6F3891463D79
(1713504870.029983) vcan0 095#CC
(1713504870.036017) vcan0 35B#EEA9A77C
(1713504870.041485) vcan0 5B8#5E386726419A1F25
(1713504870.047707) vcan0 4EA#96B748
(1713504870.054215) vcan0 61B#A19D49487678F544
(1713504870.060658) vcan0 528#825A9A3DF6563507
(1713504870.067115) vcan0 66F#2FC20D775B
(1713504870.073595) vcan0 34E#ED61A01AE32B933D
(1713504870.079990) vcan0 03F#0C2CDE6A9A636716
(1713504870.086396) vcan0 42E#BA6EBF01E6A95A53
(1713504870.092336) vcan0 165#27447A784FFEA816
(1713504870.098242) vcan0 50C#FBD4E102276B7179
(1713504870.103917) vcan0 487#9DE3663EAF01FE1A
(1713504870.110351) vcan0 398#A5583322073AAD35
(1713504870.115759) vcan0 424#6355105772
(1713504870.122121) vcan0 0D2#
(1713504870.127683) vcan0 209#AC64
(1713504870.134106) vcan0 55D#1EC0165AC2B6
(1713504870.140524) vcan0 27E#12B5D4558A
(1713504870.145759) vcan0 003#B20A960A8A340C7F
(1713504870.152182) vcan0 4AA#39360A1A4210DA1C
(1713504870.158652) vcan0 46F#494A87529388B06E
(1713504870.165058) vcan0 1B3#0690516986423D1E
(1713504870.174269) vcan0 6FC#97431D410611A62E
(1713504870.179516) vcan0 2BD#3D2762
(1713504870.185948) vcan0 3A9#DD0E5C0E28F69818
(1713504870.191344) vcan0 3A1#B295BD29A4EB5D1F
(1713504870.196640) vcan0 5FC#2E206A1E
(1713504870.201834) vcan0 6B4#E85AA37D23BB4E
(1713504870.207050) vcan0 545#B643
(1713504870.212194) vcan0 4DE#7FD16D68DB9B0A15
(1713504870.217729) vcan0 718#E1ACB043D5B9
(1713504870.223960) vcan0 55A#F0119F4F03395B59
(1713504870.229474) vcan0 37A#2B2FF4711BA7956A
(1713504870.235427) vcan0 4BC#BF92F309B832137F
(1713504870.241893) vcan0 542#5F7DDC5FF6F3554D
(1713504870.248004) vcan0 154#19AFA40F99EE83
(1713504870.254526) vcan0 579#
(1713504870.260096) vcan0 68C#33
(1713504870.266499) vcan0 428#7A173A17
(1713504870.272923) vcan0 732#855AF82EAC9AC601
(1713504870.279364) vcan0 237#C7
(1713504870.285841) vcan0 68F#AB611306D1B3
(1713504870.291692) vcan0 773#C8A7F959C7907F7F
(1713504870.298107) vcan0 752#61
(1713504870.304324) vcan0 1B1#23F786
(1713504870.310852) vcan0 405#E26D021C2DB0
(1713504870.317291) vcan0 06A#AFD124049D3F614E
(1713504870.323305) vcan0 6C6#49DA2750
(1713504870.329242) vcan0 5E5#F0
(1713504870.335039) vcan0 097#46B84B1D0B788151
(1713504870.341444) vcan0 0A6#D2080151F81F5D15
(1713504870.347830) vcan0 6EF#C45477
(1713504870.353863) vcan0 527#DF105D102CD196
(1713504870.360671) vcan0 13E#59
(1713504870.366217) vcan0 41E#45418417E4B2B179
(1713504870.372386) vcan0 73C#E2AB9B5822356A51
(1713504870.377859) vcan0 7A0#9639
(1713504870.384263) vcan0 56E#42A0852815C6707C
(1713504870.389857) vcan0 1EA#0DE6CD11DA
(1713504870.396194) vcan0 148#7B
(1713504870.402107) vcan0 6B9#9B87DE51F727402B
(1713504870.408561) vcan0 11B#9F296374
(1713504870.415025) vcan0 3FC#1E50B77839
(1713504870.422044) vcan0 674#
(1713504870.427596) vcan0 7D2#4B
(1713504870.433618) vcan0 3CE#56F3CC36B88D1E09
(1713504870.439620) vcan0 7A3#9296A5
(1713504870.446029) vcan0 435#5B17A76AEE9A2318
(1713504870.451754) vcan0 267#E5C263438353
(1713504870.458228) vcan0 7EB#BCF0CB54
(1713504870.464671) vcan0 769#20DF6316DDDD4137
(1713504870.471244) vcan0 4DA#F19B054FAD0CAF2E
(1713504870.476376) vcan0 16D#EE390B693B75076D
(1713504870.482094) vcan0 0CB#F3022676
(1713504870.487825) vcan0 6A7#59994E16DC1A
(1713504870.493226) vcan0 193#CAB57661
(1713504870.499093) vcan0 7AB#7E47412696F7FD11
(1713504870.504412) vcan0 534#7DFBC0489DBC4F20
(1713504870.510249) vcan0 115#7B9A9157EFB56667
(1713504870.516540) vcan0 219#9CC2151686032001
(1713504870.522705) vcan0 0A9#C178276E74C17F39
(1713504870.527899) vcan0 1CE#E2F96E1F76
(1713504870.533310) vcan0 53B#524BBF50CE4E3755
(1713504870.539268) vcan0 3F0#C942B2259B932E74
(1713504870.545796) vcan0 1CC#318B2C0600DFB1
(1713504870.551947) vcan0 282#9E9B0154973B910F
(1713504870.557952) vcan0 14D#86F1F776662BA654
(1713504870.564409) vcan0 485#ED2EC6
(1713504870.570962) vcan0 0AD#A3E60E707CDA272B
(1713504870.577743) vcan0 363#F20A94329E38
(1713504870.584161) vcan0 3C2#6D878B38
(1713504870.589802) vcan0 761#4E4B1D702ED1
(1713504870.595268) vcan0 47E#2EB04B4000173271
(1713504870.600743) vcan0 52E#9752C3007BBE4973
(1713504870.606547) vcan0 1E5#E2E9EF476BEE0A12
(1713504870.611738) vcan0 040#9A139A48EEA8F710
(1713504870.618224) vcan0 07D#6A831F3CE1E3DE09
(1713504870.624704) vcan0 2C3#7F1C336D854E620D
(1713504870.630480) vcan0 4A0#38065109023C9027
(1713504870.636045) vcan0 623#300D2A34A1C2
(1713504870.641574) vcan0 005#A1D95F1F3485EF34
(1713504870.647561) vcan0 12B#AF433928108BA348
(1713504870.654041) vcan0 055#7B
(1713504870.660577) vcan0 660#84119F2DDE
(1713504870.667012) vcan0 753#BFEA617916621824
(1713504870.672531) vcan0 34A#9CB07A31EA07794A
(1713504870.678263) vcan0 32B#EC430972
(1713504870.684691) vcan0 05A#EFDB7D3E5F30F223
(1713504870.691160) vcan0 67B#
(1713504870.697682) vcan0 1C8#B6A20F
(1713504870.702904) vcan0 6D4#B3BA
(1713504870.708245) vcan0 147#1374A66E9A30F8
(1713504870.713772) vcan0 125#B192
(1713504870.719830) vcan0 610#5A8CCF6C3B11F15A
(1713504870.725509) vcan0 221#892A416B7B02
(1713504870.731299) vcan0 163#DA32832EDE2FB51F
(1713504870.736551) vcan0 408#84472143D09D9D05
(1713504870.742369) vcan0 1B1#EEEF7C1B8508C479
(1713504870.748890) vcan0 66C#BA
(1713504870.754534) vcan0 6D9#4EE0ED25FED70D78
(1713504870.761012) vcan0 09F#6E5C641AB0AE331E
(1713504870.767492) vcan0 64C#EBBF24796DB0E001
(1713504870.773994) vcan0 10E#E8B2710C71
(1713504870.780113) vcan0 0ED#4F0ACE
(1713504870.785752) vcan0 631#C64A5F
(1713504870.791301) vcan0 40E#67B89D44
(1713504870.796540) vcan0 556#2EF2
(1713504870.802243) vcan0 7EF#2D34172B8F60A974
(1713504870.804670) vcan0 000#6D795F6361725F
(1713504870.807147) vcan0 000#69735F
(1713504870.807408) vcan0 57C#3F0FDD12C9FB7A34
(1713504870.808351) vcan0 000#6272306B656E
(1713504870.809335) vcan0 000#21212121
(1713504870.812539) vcan0 163#36AC5B367232BC32
(1713504870.817674) vcan0 19F#E30CD51D8DAA8C7E
(1713504870.823653) vcan0 4E2#83574E
(1713504870.829133) vcan0 106#F5C2F50A14A5B273
(1713504870.834933) vcan0 4FE#8FE7C16654C2696B
(1713504870.840162) vcan0 17E#831E731E6EC12B32
(1713504870.845683) vcan0 43A#
(1713504870.850944) vcan0 34C#80ED2570AF5CB55B
(1713504870.856986) vcan0 066#218F710E06BA
(1713504870.862906) vcan0 0D5#9364A834B7
(1713504870.868093) vcan0 338#CA502D273E1C
(1713504870.873639) vcan0 65F#53C12E3F5D3B2E5F
(1713504870.879123) vcan0 71C#B1FD
(1713504870.884438) vcan0 29F#08FAFA40
(1713504870.890087) vcan0 6E5#91201C4E31
(1713504870.895839) vcan0 541#E0
(1713504870.901387) vcan0 7C7#AE07
(1713504870.907226) vcan0 207#54
(1713504870.912428) vcan0 057#7DA96E78B6869513
(1713504870.918881) vcan0 2DE#
(1713504870.924996) vcan0 3B2#950AFA1E52
(1713504870.930816) vcan0 3FA#2CC5B64FDF4AFC58
(1713504870.936036) vcan0 0A3#109D971AE46D4769
(1713504870.942466) vcan0 3CE#
(1713504870.948550) vcan0 1F2#323CEB0EF963B33B
(1713504870.954926) vcan0 77B#38F1A568D257BB
(1713504870.961402) vcan0 1A6#89DE506E848C
(1713504870.967856) vcan0 586#7F5EFF3E39194076
(1713504870.974301) vcan0 062#8BAF8533
(1713504870.980800) vcan0 5B1#3B87D31D548EB3
(1713504870.986122) vcan0 274#39FCFA6E424E247D
(1713504870.991930) vcan0 03C#D7E9FC3D2E
(1713504870.997177) vcan0 300#285EB10F7BAA126D
(1713504871.003499) vcan0 091#
(1713504871.009868) vcan0 216#BB162C609DEF1D
(1713504871.016352) vcan0 174#D6085E68D6E1A335
(1713504871.022934) vcan0 64E#33
(1713504871.028217) vcan0 518#54DAC6408C872F40
(1713504871.033608) vcan0 1BA#CED5533DF6390D41
(1713504871.039721) vcan0 653#24340B1553
(1713504871.045300) vcan0 5AF#CEB3950940263059
(1713504871.051771) vcan0 1AD#77B0870AC3CB7F76
(1713504871.058207) vcan0 6F3#60BB9D
(1713504871.064662) vcan0 46D#3EFA5954BC1A
(1713504871.071243) vcan0 497#BC
(1713504871.076839) vcan0 5DF#
(1713504871.083252) vcan0 79E#8FC1EA78F1A5DA21
(1713504871.089451) vcan0 6AF#44AF5D3E
(1713504871.095666) vcan0 000#9FD2
(1713504871.102067) vcan0 12F#7135464622B0
(1713504871.107704) vcan0 249#8A
(1713504871.114130) vcan0 508#73A15B2C9F31BF6C
(1713504871.120588) vcan0 339#4FDBBE781899E249
(1713504871.125740) vcan0 13F#B220C001DD60F123
(1713504871.132126) vcan0 394#CE
(1713504871.137241) vcan0 7F5#A186
(1713504871.143680) vcan0 125#
(1713504871.150064) vcan0 457#76E24D06
(1713504871.156366) vcan0 7E6#
(1713504871.162795) vcan0 5C8#8DD6E26C0149863C
(1713504871.169234) vcan0 6F9#1AE2680639A04244
(1713504871.175231) vcan0 667#16013468FBD10079
(1713504871.180981) vcan0 50D#3EAC454C03
(1713504871.188669) vcan0 5F7#F91CC8461CD7467E
(1713504871.195182) vcan0 420#7009BB637768782A
(1713504871.200361) vcan0 5B1#178F433D97D585
(1713504871.206789) vcan0 6E7#857AA923B004AE09
(1713504871.212125) vcan0 339#B14D
(1713504871.217728) vcan0 2EF#6C82187156C1BD20
(1713504871.224478) vcan0 297#5193
(1713504871.230222) vcan0 367#A8D40E635F497639
(1713504871.236162) vcan0 26E#7B
(1713504871.242617) vcan0 03D#05673930EEBDFA1E
(1713504871.248213) vcan0 5D3#85938042BAAC6735
(1713504871.253476) vcan0 28C#6AB1153FC5BDC73C
(1713504871.259947) vcan0 71D#F89F9D690C62E46C
(1713504871.266439) vcan0 6E7#6223A20D
(1713504871.273531) vcan0 5E7#247947
(1713504871.280187) vcan0 642#AD7AC574B0680060
(1713504871.286705) vcan0 76D#3F67C165AA17E606
(1713504871.293183) vcan0 515#99D5E025
(1713504871.299665) vcan0 461#A287E302EDF65A66
(1713504871.306696) vcan0 729#B3B4222346D64145
(1713504871.312687) vcan0 029#5238263210672A19
(1713504871.319194) vcan0 710#8FC8D73F
(1713504871.325230) vcan0 267#454EC8
(1713504871.331187) vcan0 77F#59718E
(1713504871.336404) vcan0 41C#97E6883131290B40
(1713504871.341724) vcan0 6DD#
(1713504871.348106) vcan0 54E#2C621D3A779C560E
(1713504871.354145) vcan0 4C8#BD729853F1FCA619
(1713504871.360633) vcan0 38A#0264D1329AE27651
(1713504871.366809) vcan0 6C3#91
(1713504871.372756) vcan0 645#D3213E21C4FD3D
(1713504871.379300) vcan0 6CA#B1CCE07AE67A5607
(1713504871.384565) vcan0 3C5#17A46147A2126700
(1713504871.390512) vcan0 778#
(1713504871.395773) vcan0 3EB#3E31F551B4F8B637
(1713504871.401375) vcan0 6EC#A5F55D5176628755
(1713504871.407383) vcan0 70B#1145FE26CE55D3
(1713504871.412630) vcan0 639#F96E
(1713504871.419039) vcan0 279#42F2DE7743A9EC66
(1713504871.424190) vcan0 3F9#292443
(1713504871.429652) vcan0 23B#
(1713504871.435715) vcan0 070#7A76
(1713504871.441087) vcan0 04F#109D97273BF70833
(1713504871.447503) vcan0 3B3#B2599008BE
(1713504871.453352) vcan0 45D#8DF03D
(1713504871.459807) vcan0 365#14679E1BDF75
(1713504871.465190) vcan0 052#221F10024C14
(1713504871.471648) vcan0 04A#0BA4BB6F858A6625
(1713504871.478143) vcan0 38C#396C6348FD7B8530
(1713504871.484554) vcan0 6AF#592066
(1713504871.489720) vcan0 26B#3A5E93081ED6AD45
(1713504871.495771) vcan0 01E#DD70184F7B3C183E
(1713504871.500911) vcan0 6AF#11AF1532143A2F04
(1713504871.506173) vcan0 0F0#F3AF521F42
(1713504871.512381) vcan0 77C#8EC5AB42C687
(1713504871.518449) vcan0 262#4B12D50CEE1DAE37
(1713504871.524389) vcan0 006#EB993368
(1713504871.530114) vcan0 137#B37DC76A
(1713504871.536038) vcan0 7AD#C1C17431CCC78A11
(1713504871.541548) vcan0 3D9#4704A34F88EA3045
(1713504871.546694) vcan0 408#9D246049F854FB2A
(1713504871.551839) vcan0 17E#
(1713504871.557009) vcan0 3A6#C0C00C1808B6CB1B
(1713504871.562827) vcan0 562#F7D3795368E5DD5E
(1713504871.568092) vcan0 190#1DFC
(1713504871.573373) vcan0 027#6A
(1713504871.578966) vcan0 5BE#A067692698E9BB56
(1713504871.584153) vcan0 2C9#20D4EC1BD126FE65
(1713504871.589700) vcan0 741#C97BF910BFE83147
(1713504871.595682) vcan0 54E#BA21D077
(1713504871.601016) vcan0 5CD#FD26E1732F837A70
(1713504871.606879) vcan0 586#9868584F
(1713504871.613364) vcan0 0D6#DFB92A2DFD
(1713504871.619800) vcan0 686#D2302E5C45349374
(1713504871.625691) vcan0 075#DD1D
(1713504871.631723) vcan0 45A#1072E9349B236970
(1713504871.637104) vcan0 2BB#5B0C9B3709B8881A
(1713504871.642932) vcan0 7DD#FD289E72AA
(1713504871.649362) vcan0 08F#DA40BE4216C60674
(1713504871.656104) vcan0 2EE#2DCD
(1713504871.662440) vcan0 627#C2443278AEECDF77
(1713504871.667837) vcan0 755#F320736C
(1713504871.674317) vcan0 607#
(1713504871.679639) vcan0 0CD#FD350540881B876B
(1713504871.686085) vcan0 2F2#91D30F06D0B2481D
(1713504871.692538) vcan0 06D#7A708C6FFC805366
(1713504871.699010) vcan0 489#12475A5A
(1713504871.704156) vcan0 2C6#3D4BEA3DEE68EB19
(1713504871.709393) vcan0 34B#9C55CB11A17A9234
(1713504871.715329) vcan0 594#6B12B14E9B137561
(1713504871.721235) vcan0 55F#FC251131
(1713504871.726389) vcan0 28D#B5018640808D8439
(1713504871.732037) vcan0 651#5040CD56BE0E
(1713504871.737539) vcan0 1D5#BB8F15765F1E711E
(1713504871.742993) vcan0 21F#D7B5782BE5BC053D
(1713504871.749372) vcan0 30D#D325F156
(1713504871.755366) vcan0 113#F900814FA796FC29
(1713504871.761846) vcan0 1FE#42AA710B5D
(1713504871.768362) vcan0 0D9#8A8DFA7167539B2B
(1713504871.774420) vcan0 438#E7E01F658ACA4F16
(1713504871.780874) vcan0 485#48D911265B365A
(1713504871.786856) vcan0 201#BA54CB
(1713504871.793319) vcan0 7D1#06
(1713504871.799744) vcan0 3A5#36B12F55B89C260B
(1713504871.806208) vcan0 249#
(1713504871.812462) vcan0 595#A52B
(1713504871.818935) vcan0 5E1#D5216B441ADAB02A
(1713504871.824276) vcan0 06E#A4A40041F3AC2619
(1713504871.829997) vcan0 3F3#4EE38051F5F5BE67
(1713504871.835719) vcan0 6F0#152AAA62C126D16F
(1713504871.841146) vcan0 299#9F51122A3E4E3716
(1713504871.846999) vcan0 1F5#F7EA5D213E
(1713504871.852355) vcan0 505#8548B57F9A7AD5
(1713504871.858827) vcan0 3F9#0949A57FDBA92D14
(1713504871.865397) vcan0 559#F583DE3EC775EA08
(1713504871.871132) vcan0 59B#BB2211228E911353
(1713504871.877576) vcan0 685#8387D23A758D2B6A
(1713504871.884072) vcan0 612#36B4FC59AB806E46
(1713504871.890546) vcan0 4B4#EACEA55CA9
(1713504871.896521) vcan0 0AB#E7
(1713504871.902931) vcan0 038#4B38190E31D49A6B
(1713504871.909384) vcan0 797#0C7EC87F
(1713504871.915855) vcan0 432#B8
(1713504871.922386) vcan0 29A#5CEB7D
(1713504871.927593) vcan0 37D#955EA30F8F89F620
(1713504871.932986) vcan0 478#3A0A65672DF1E422
(1713504871.939088) vcan0 0A1#D6EF7904
(1713504871.945151) vcan0 305#FDDE43183D6B9316
(1713504871.951325) vcan0 62B#6F3F2E02C23D4107
(1713504871.956518) vcan0 09C#B3EACB6DCE84EA05
(1713504871.962578) vcan0 77D#9CDE544517EA237F
(1713504871.968991) vcan0 2DF#37BB9B245C9EDF73
(1713504871.975152) vcan0 4D7#EB27D6145061F00F
(1713504871.981564) vcan0 499#7D52D5323A45
(1713504871.986694) vcan0 34A#87668E
(1713504871.993051) vcan0 511#8D09E818
(1713504871.999040) vcan0 4CC#FFF04B4F68F54A6F
(1713504872.004308) vcan0 678#367A
(1713504872.009897) vcan0 11E#0CB0
(1713504872.016316) vcan0 2CA#5ADAFF7C
(1713504872.022823) vcan0 511#F2C07047AAB1
(1713504872.028171) vcan0 46C#E4F6165FB63F574E
(1713504872.034623) vcan0 5C2#06DEAB50D44A0F70
(1713504872.041048) vcan0 2EF#10FE1938
(1713504872.047472) vcan0 090#23F5F11A0837B721
(1713504872.053940) vcan0 2C2#FDFC617FE0B3D65E
(1713504872.059675) vcan0 02C#DEEFF667F7EA0E5D
(1713504872.066123) vcan0 04E#994A8F145F9D4413
(1713504872.072865) vcan0 47F#094FCD66EB00DE04
(1713504872.079351) vcan0 6FA#A1403553BC74DB07
(1713504872.085511) vcan0 359#90BFEA7748460112
(1713504872.091210) vcan0 63C#04
(1713504872.097634) vcan0 4B0#D56DD6337277E8
(1713504872.104104) vcan0 281#532B
(1713504872.110589) vcan0 7DC#A5
(1713504872.116869) vcan0 56A#89CD4800E9B1791E
(1713504872.122830) vcan0 3C9#D4B2
(1713504872.128128) vcan0 280#7F47335FD905
(1713504872.134514) vcan0 21E#
(1713504872.140939) vcan0 4B1#264F023A61
(1713504872.147386) vcan0 54D#D4E8753ACE77895F
(1713504872.153861) vcan0 7CE#7CEAFC12AA3F7A
(1713504872.160367) vcan0 758#D5
(1713504872.166765) vcan0 05F#ACC6111E28A4A249
(1713504872.173757) vcan0 1F1#EB
(1713504872.180245) vcan0 4F7#4AC25B00157F6452
(1713504872.186735) vcan0 57B#6F97477A2C8A6E5E
(1713504872.193225) vcan0 091#8DFBFB1CDE
(1713504872.199627) vcan0 391#AC
(1713504872.207064) vcan0 088#090BAE73E1279244
(1713504872.212235) vcan0 04A#A43C2A44AA086D54
(1713504872.217445) vcan0 03D#
(1713504872.223498) vcan0 4D1#9FCEA865C8E99B5B
(1713504872.228885) vcan0 229#DD68002EA4A78316
(1713504872.234739) vcan0 754#D031F274E53FF445
(1713504872.240311) vcan0 6E2#C3ADCA3B738AB47E
(1713504872.245909) vcan0 1BF#
(1713504872.252031) vcan0 399#2832991AE37B6305
(1713504872.258510) vcan0 3BA#8D84D059F793B675
(1713504872.264920) vcan0 21D#
(1713504872.271339) vcan0 51E#B7D84040
(1713504872.277453) vcan0 5AD#EBDEA50C
(1713504872.283910) vcan0 1E1#E7E40E02C3281B73
(1713504872.290374) vcan0 618#36B3CF71D74FE67C
(1713504872.296870) vcan0 61A#1F5AED52B3898B48
(1713504872.303035) vcan0 1E3#9705EF4D9D4511
(1713504872.308186) vcan0 314#94D9C725
(1713504872.313568) vcan0 384#1F5CEE71A2108A56
(1713504872.319772) vcan0 47D#E947AC4C2AFA
(1713504872.325734) vcan0 66B#2C9FCF0F
(1713504872.331808) vcan0 78F#0FE114
(1713504872.337285) vcan0 6BD#7FC5566BD8
(1713504872.343168) vcan0 54D#8BC647673007EB38
(1713504872.348394) vcan0 3E6#CE4C
(1713504872.354038) vcan0 647#2B14
(1713504872.360090) vcan0 61C#6E222053999A933C
(1713504872.365277) vcan0 521#C49448108C1BEC
(1713504872.370810) vcan0 12C#
(1713504872.375986) vcan0 003#633E7942C0CEAE
(1713504872.382405) vcan0 12C#980B6B
(1713504872.389334) vcan0 381#A9ED664F
(1713504872.394716) vcan0 646#6176F30F8DF4DF
(1713504872.400623) vcan0 0DA#59067616F6063B25
(1713504872.407095) vcan0 2D7#8FA1CE61F89F19
(1713504872.413471) vcan0 31E#84BB05
(1713504872.419396) vcan0 243#06ED895646222644
(1713504872.425855) vcan0 443#07F1D4456F8DC572
(1713504872.432052) vcan0 74C#E8734109CE52E732
(1713504872.437502) vcan0 6C3#35
(1713504872.443790) vcan0 409#9761BC44E3FC32
(1713504872.450204) vcan0 323#
(1713504872.456671) vcan0 0B7#F2BDC232D6232B4E
(1713504872.463203) vcan0 3BC#2048AC50FF45
(1713504872.469449) vcan0 0D2#4668A927154D
(1713504872.475411) vcan0 090#84DA5F52DC8F0C07
(1713504872.481847) vcan0 5EC#AAE2F339B024B141
(1713504872.487497) vcan0 7FE#
(1713504872.494004) vcan0 577#EA
(1713504872.500441) vcan0 342#95DE27
(1713504872.506933) vcan0 22B#CF0F701FE7CD86
(1713504872.513414) vcan0 5FE#
(1713504872.519883) vcan0 516#E66B0145A6ED8B57
(1713504872.526355) vcan0 57A#837D985E662BF017
(1713504872.531902) vcan0 4D7#1650A159D5444C27
(1713504872.537313) vcan0 50D#
(1713504872.543249) vcan0 522#1FC3384C6430
(1713504872.549665) vcan0 689#5D1C3A55
(1713504872.560587) vcan0 63B#9CE6D96A3954FE48
(1713504872.565718) vcan0 41D#0A7365
(1713504872.571316) vcan0 6B0#
(1713504872.576427) vcan0 55A#9077B94C31BACA7D
(1713504872.582850) vcan0 48A#06FF1625984110
(1713504872.588316) vcan0 177#1C44
(1713504872.593468) vcan0 1A8#FDAEF76731900241
(1713504872.599925) vcan0 0EF#E6A855602BE7AE60
(1713504872.605397) vcan0 788#643B
(1713504872.611197) vcan0 205#D88CBB12B500AB55
(1713504872.617607) vcan0 55E#DF4C
(1713504872.624585) vcan0 00F#EA6C0C549AE46763
(1713504872.630104) vcan0 416#32
(1713504872.635241) vcan0 3D3#27B4144E7C65BE26
(1713504872.640508) vcan0 18A#ADF5C06779
(1713504872.645864) vcan0 680#A40158
(1713504872.651002) vcan0 615#ADA1BC3B1AB85978
(1713504872.656835) vcan0 377#CFB8044ED6
(1713504872.661957) vcan0 238#8F2BD32E47C2764D
(1713504872.667260) vcan0 21E#E1A6DE3034562F2D
(1713504872.673535) vcan0 46A#C28B41
(1713504872.679237) vcan0 762#BA659D2DECA8DE0D
(1713504872.684472) vcan0 30F#65C387388FD1A0
(1713504872.689796) vcan0 1FB#97F7BA331028BB70
(1713504872.694922) vcan0 213#2BE01469
(1713504872.700200) vcan0 7C9#60668E5E0182C872
(1713504872.706683) vcan0 6A9#49443F40C768393F
(1713504872.711967) vcan0 269#FBBE686CD32E440C
(1713504872.717123) vcan0 03E#112F2313A0EF0D1A
(1713504872.723607) vcan0 2A8#8C98EC27B72D6304
(1713504872.728735) vcan0 033#46
(1713504872.733840) vcan0 0FB#3E124F240E23391D
(1713504872.740289) vcan0 021#99103623EA572674
(1713504872.745423) vcan0 364#ECD9EE660D2A1054
(1713504872.750653) vcan0 0E9#D492491352
(1713504872.756328) vcan0 15F#2562AB2B9DC1C005
(1713504872.761512) vcan0 48D#3DB1CE1F35275D
(1713504872.766668) vcan0 602#EC54C0703516AE55
(1713504872.771932) vcan0 5BB#6300
(1713504872.777048) vcan0 30F#C5E9
(1713504872.782337) vcan0 50B#1B33E0746F90727F
(1713504872.787480) vcan0 157#7CBA8253407ADD
(1713504872.792810) vcan0 33C#
(1713504872.798159) vcan0 720#39F60921AD3BDB69
(1713504872.803324) vcan0 0EF#E3623856F1C6
(1713504872.808631) vcan0 140#27DDFB7CFB96C330
(1713504872.814275) vcan0 402#B15D477D11574015
(1713504872.819370) vcan0 02C#4232FA1538F5
(1713504872.824601) vcan0 1D4#A785366E2CB3AE02
(1713504872.829941) vcan0 264#6C2D8C20
(1713504872.835698) vcan0 574#3BD2EF04942C040F
(1713504872.841038) vcan0 2B7#4268DF78
(1713504872.846240) vcan0 7EB#9752CD152B
(1713504872.851404) vcan0 2F4#26F82920F68ECD60
(1713504872.857653) vcan0 549#08E60D7675FDD5
(1713504872.862967) vcan0 54E#ADF2993B22DF6C78
(1713504872.868145) vcan0 5A7#4E921B7B0B
(1713504872.873343) vcan0 079#AB8D3267ED450F14
(1713504872.878564) vcan0 2BA#827213237185
(1713504872.883767) vcan0 05B#1711B92E
(1713504872.889056) vcan0 5E9#71F95468DD281B01
(1713504872.894498) vcan0 36D#D4B7E861B6A056
(1713504872.899651) vcan0 76E#2B9E2C3DBCE4652A
(1713504872.905017) vcan0 626#DFC3D222CD33E17A
(1713504872.910293) vcan0 12E#D8236D78A7C1200E
(1713504872.915553) vcan0 5E8#940730
(1713504872.920971) vcan0 169#13364873C439
(1713504872.926194) vcan0 4DA#0AD2CC56C3FA404C
(1713504872.931345) vcan0 2D9#A1235C4D463ED73D
(1713504872.936600) vcan0 512#FCDE2D2E81
(1713504872.941770) vcan0 151#3DE9F617772F3A
(1713504872.946891) vcan0 600#44631B662E17B806
(1713504872.952087) vcan0 34A#D5D8D81432194E12
(1713504872.957269) vcan0 09F#D5C95C45084AEA09
(1713504872.963542) vcan0 280#CD83C8675BAF825D
(1713504872.969940) vcan0 713#1EAAC329ECF12D
(1713504872.976362) vcan0 153#3230057F65DE5745
(1713504872.982144) vcan0 134#E6E2E8328522A02D
(1713504872.988551) vcan0 455#FC51DA18
(1713504872.994692) vcan0 140#
(1713504873.000281) vcan0 45C#BD95AF70FB74A61B
(1713504873.006741) vcan0 2C4#04BF
(1713504873.012066) vcan0 77A#9F
(1713504873.018455) vcan0 0A8#7998850AFBB9A549
(1713504873.024905) vcan0 47D#6198FD0EB2955F70
(1713504873.030672) vcan0 7D9#37B8FF1D2F644B
(1713504873.035881) vcan0 76B#85FEF94B
(1713504873.041222) vcan0 774#363DD170D1FB4D13
(1713504873.046816) vcan0 263#CC70F4
(1713504873.053218) vcan0 285#
(1713504873.058480) vcan0 2A1#8D38964F4A0BCD2D
(1713504873.064873) vcan0 5C9#45C5727747EA6A
(1713504873.070902) vcan0 1B2#F97FCA388C71
(1713504873.077305) vcan0 0EE#
(1713504873.083754) vcan0 264#
(1713504873.089823) vcan0 449#AAFDC156ADBEAA6C
(1713504873.096294) vcan0 12F#D4639323B523
(1713504873.102688) vcan0 647#
(1713504873.109193) vcan0 54C#321C
(1713504873.115626) vcan0 749#5C958018FC580365
(1713504873.122036) vcan0 71E#88CA677F0C
(1713504873.127364) vcan0 586#66383E
(1713504873.132644) vcan0 483#C3912D79CCF8CB23
